!Agilent Technologies,E5071C,MY46214392,A.11.36
!Date: Fri Apr 24 10:03:42 2026
!Data & Calibration Information:
!Freq	S11:SOLT1(ON)
!PortZ  Port1:50+j0
!Above PortZ is port z conversion or system Z0 setting when saving the data.
!When reading, reference impedance value at option line is always used.
# Hz S RI R 50
25000000	-8.052480e-001	4.502401e-001
25140625	-7.958874e-001	4.664039e-001
25281250	-7.858375e-001	4.823834e-001
25421875	-7.753595e-001	4.978514e-001
25562500	-7.647902e-001	5.139094e-001
25703125	-7.540031e-001	5.290501e-001
25843750	-7.421720e-001	5.442636e-001
25984375	-7.315297e-001	5.592162e-001
26125000	-7.192538e-001	5.740023e-001
26265625	-7.071240e-001	5.881203e-001
26406250	-6.945814e-001	6.026909e-001
26546875	-6.822390e-001	6.162913e-001
26687500	-6.691472e-001	6.300418e-001
26828125	-6.560467e-001	6.433996e-001
26968750	-6.427008e-001	6.562111e-001
27109375	-6.285707e-001	6.691609e-001
27250000	-6.148380e-001	6.820409e-001
27390625	-6.003455e-001	6.942283e-001
27531250	-5.863038e-001	7.059956e-001
27671875	-5.720710e-001	7.176168e-001
27812500	-5.566879e-001	7.289806e-001
27953125	-5.411836e-001	7.398669e-001
28093750	-5.263566e-001	7.506719e-001
28234375	-5.104853e-001	7.612698e-001
28375000	-4.945557e-001	7.712366e-001
28515625	-4.790938e-001	7.811801e-001
28656250	-4.625018e-001	7.906950e-001
28796875	-4.463752e-001	7.992884e-001
28937500	-4.295633e-001	8.083097e-001
29078125	-4.132349e-001	8.170590e-001
29218750	-3.964264e-001	8.247800e-001
29359375	-3.795928e-001	8.322713e-001
29500000	-3.628601e-001	8.397827e-001
29640625	-3.451431e-001	8.469481e-001
29781250	-3.273980e-001	8.537727e-001
29921875	-3.103819e-001	8.596514e-001
30062500	-2.921990e-001	8.663909e-001
30203125	-2.745371e-001	8.716131e-001
30343750	-2.568342e-001	8.769619e-001
30484375	-2.387735e-001	8.818015e-001
30625000	-2.212583e-001	8.860362e-001
30765625	-2.035436e-001	8.901737e-001
30906250	-1.845668e-001	8.943507e-001
31046875	-1.663659e-001	8.977623e-001
31187500	-1.481794e-001	9.008085e-001
31328125	-1.293798e-001	9.034174e-001
31468750	-1.112233e-001	9.056452e-001
31609375	-9.263098e-002	9.074319e-001
31750000	-7.454619e-002	9.090178e-001
31890625	-5.603691e-002	9.106786e-001
32031250	-3.732508e-002	9.116547e-001
32171875	-1.887510e-002	9.115488e-001
32312500	-2.209133e-004	9.122456e-001
32453125	1.816409e-002	9.121278e-001
32593750	3.639336e-002	9.108115e-001
32734375	5.513768e-002	9.096285e-001
32875000	7.419136e-002	9.088392e-001
33015625	9.244731e-002	9.070284e-001
33156250	1.104738e-001	9.044428e-001
33296875	1.293200e-001	9.022711e-001
33437500	1.471069e-001	8.993463e-001
33578125	1.658952e-001	8.963357e-001
33718750	1.836745e-001	8.927244e-001
33859375	2.013981e-001	8.883501e-001
34000000	2.198130e-001	8.842395e-001
34140625	2.377643e-001	8.795316e-001
34281250	2.555981e-001	8.751021e-001
34421875	2.730395e-001	8.693449e-001
34562500	2.906317e-001	8.640177e-001
34703125	3.085149e-001	8.574086e-001
34843750	3.256143e-001	8.508692e-001
34984375	3.424887e-001	8.440342e-001
35125000	3.597522e-001	8.373784e-001
35265625	3.766539e-001	8.300782e-001
35406250	3.933270e-001	8.216013e-001
35546875	4.103658e-001	8.139451e-001
35687500	4.264650e-001	8.055666e-001
35828125	4.426387e-001	7.964921e-001
35968750	4.587602e-001	7.879776e-001
36109375	4.745445e-001	7.781327e-001
36250000	4.906825e-001	7.684746e-001
36390625	5.060708e-001	7.586058e-001
36531250	5.220174e-001	7.482098e-001
36671875	5.364470e-001	7.371135e-001
36812500	5.513230e-001	7.262111e-001
36953125	5.658084e-001	7.148638e-001
37093750	5.805017e-001	7.038505e-001
37234375	5.942874e-001	6.916289e-001
37375000	6.082452e-001	6.795580e-001
37515625	6.222642e-001	6.668071e-001
37656250	6.355985e-001	6.542027e-001
37796875	6.489563e-001	6.413982e-001
37937500	6.616311e-001	6.288148e-001
38078125	6.741251e-001	6.147908e-001
38218750	6.871384e-001	6.012810e-001
38359375	6.990277e-001	5.870905e-001
38500000	7.107778e-001	5.729629e-001
38640625	7.223625e-001	5.583112e-001
38781250	7.340267e-001	5.437918e-001
38921875	7.448652e-001	5.292407e-001
39062500	7.551187e-001	5.137360e-001
39203125	7.657511e-001	4.984658e-001
39343750	7.761835e-001	4.824708e-001
39484375	7.856040e-001	4.670150e-001
39625000	7.949431e-001	4.510553e-001
39765625	8.044365e-001	4.349586e-001
39906250	8.132327e-001	4.185872e-001
40046875	8.214170e-001	4.022071e-001
40187500	8.298460e-001	3.858700e-001
40328125	8.373091e-001	3.683812e-001
40468750	8.449093e-001	3.515417e-001
40609375	8.522404e-001	3.345103e-001
40750000	8.586003e-001	3.171586e-001
40890625	8.653056e-001	2.998369e-001
41031250	8.714074e-001	2.821308e-001
41171875	8.769428e-001	2.648503e-001
41312500	8.825449e-001	2.465101e-001
41453125	8.873896e-001	2.284926e-001
41593750	8.924196e-001	2.110389e-001
41734375	8.964173e-001	1.924475e-001
41875000	9.003556e-001	1.744367e-001
42015625	9.037976e-001	1.559539e-001
42156250	9.073752e-001	1.377484e-001
42296875	9.094203e-001	1.196003e-001
42437500	9.121863e-001	1.011385e-001
42578125	9.141068e-001	8.200823e-002
42718750	9.161377e-001	6.370671e-002
42859375	9.173627e-001	4.483500e-002
43000000	9.179735e-001	2.632318e-002
43140625	9.187654e-001	7.688208e-003
43281250	9.189407e-001	-1.082092e-002
43421875	9.186618e-001	-2.951434e-002
43562500	9.183365e-001	-4.811825e-002
43703125	9.174528e-001	-6.700616e-002
43843750	9.160993e-001	-8.559439e-002
43984375	9.143315e-001	-1.043204e-001
44125000	9.120430e-001	-1.230655e-001
44265625	9.096144e-001	-1.413785e-001
44406250	9.068868e-001	-1.596142e-001
44546875	9.035574e-001	-1.782301e-001
44687500	8.996670e-001	-1.966242e-001
44828125	8.960045e-001	-2.150304e-001
44968750	8.914159e-001	-2.332421e-001
45109375	8.866801e-001	-2.514730e-001
45250000	8.817393e-001	-2.697532e-001
45390625	8.759546e-001	-2.871560e-001
45531250	8.701113e-001	-3.053102e-001
45671875	8.634886e-001	-3.231674e-001
45812500	8.576165e-001	-3.406945e-001
45953125	8.506205e-001	-3.581674e-001
46093750	8.436820e-001	-3.753102e-001
46234375	8.355045e-001	-3.930779e-001
46375000	8.274018e-001	-4.096140e-001
46515625	8.195264e-001	-4.265997e-001
46656250	8.105363e-001	-4.431612e-001
46796875	8.014613e-001	-4.598799e-001
46937500	7.922185e-001	-4.763730e-001
47078125	7.823630e-001	-4.925989e-001
47218750	7.722218e-001	-5.080467e-001
47359375	7.619816e-001	-5.244604e-001
47500000	7.511903e-001	-5.395577e-001
47640625	7.403770e-001	-5.549395e-001
47781250	7.287761e-001	-5.701184e-001
47921875	7.171624e-001	-5.849803e-001
48062500	7.053835e-001	-5.996837e-001
48203125	6.933424e-001	-6.143238e-001
48343750	6.802690e-001	-6.282194e-001
48484375	6.673668e-001	-6.418392e-001
48625000	6.540137e-001	-6.559059e-001
48765625	6.413561e-001	-6.689897e-001
48906250	6.271948e-001	-6.822273e-001
49046875	6.129999e-001	-6.950771e-001
49187500	5.987366e-001	-7.072689e-001
49328125	5.842674e-001	-7.198609e-001
49468750	5.697664e-001	-7.315511e-001
49609375	5.546172e-001	-7.435753e-001
49750000	5.392073e-001	-7.547585e-001
49890625	5.237878e-001	-7.657387e-001
50031250	5.082997e-001	-7.766892e-001
50171875	4.922546e-001	-7.865498e-001
50312500	4.759119e-001	-7.966659e-001
50453125	4.595534e-001	-8.063356e-001
50593750	4.431621e-001	-8.156493e-001
50734375	4.261392e-001	-8.246009e-001
50875000	4.093439e-001	-8.337563e-001
51015625	3.921540e-001	-8.416820e-001
51156250	3.747170e-001	-8.491795e-001
51296875	3.571298e-001	-8.571215e-001
51437500	3.399099e-001	-8.643958e-001
51578125	3.219353e-001	-8.712941e-001
51718750	3.041691e-001	-8.774893e-001
51859375	2.863721e-001	-8.836507e-001
52000000	2.677660e-001	-8.898918e-001
52140625	2.496434e-001	-8.947620e-001
52281250	2.311741e-001	-8.999922e-001
52421875	2.123575e-001	-9.046053e-001
52562500	1.944890e-001	-9.083618e-001
52703125	1.756033e-001	-9.127013e-001
52843750	1.568608e-001	-9.159221e-001
52984375	1.378830e-001	-9.190702e-001
53125000	1.187927e-001	-9.217856e-001
53265625	9.987234e-002	-9.243572e-001
53406250	8.131741e-002	-9.254973e-001
53546875	6.185432e-002	-9.271964e-001
53687500	4.300170e-002	-9.280659e-001
53828125	2.382350e-002	-9.288570e-001
53968750	5.211770e-003	-9.293649e-001
54109375	-1.446830e-002	-9.292147e-001
54250000	-3.332750e-002	-9.289098e-001
54390625	-5.223569e-002	-9.276319e-001
54531250	-7.190958e-002	-9.263423e-001
54671875	-9.064206e-002	-9.249429e-001
54812500	-1.096095e-001	-9.224084e-001
54953125	-1.285678e-001	-9.203220e-001
55093750	-1.469214e-001	-9.171544e-001
55234375	-1.666697e-001	-9.138613e-001
55375000	-1.853288e-001	-9.102294e-001
55515625	-2.038221e-001	-9.059725e-001
55656250	-2.220412e-001	-9.014693e-001
55796875	-2.406224e-001	-8.965351e-001
55937500	-2.588405e-001	-8.917546e-001
56078125	-2.773440e-001	-8.862432e-001
56218750	-2.953222e-001	-8.802894e-001
56359375	-3.134368e-001	-8.731878e-001
56500000	-3.315937e-001	-8.666195e-001
56640625	-3.491600e-001	-8.594531e-001
56781250	-3.666216e-001	-8.520492e-001
56921875	-3.836525e-001	-8.440639e-001
57062500	-4.008138e-001	-8.364380e-001
57203125	-4.179719e-001	-8.272526e-001
57343750	-4.349922e-001	-8.188590e-001
57484375	-4.519959e-001	-8.093261e-001
57625000	-4.680461e-001	-7.997434e-001
57765625	-4.843654e-001	-7.897481e-001
57906250	-5.003652e-001	-7.792868e-001
58046875	-5.165819e-001	-7.689394e-001
58187500	-5.319441e-001	-7.579777e-001
58328125	-5.470655e-001	-7.470216e-001
58468750	-5.621312e-001	-7.352456e-001
58609375	-5.767934e-001	-7.231001e-001
58750000	-5.920225e-001	-7.108843e-001
58890625	-6.060954e-001	-6.983774e-001
59031250	-6.200098e-001	-6.856001e-001
59171875	-6.340467e-001	-6.729982e-001
59312500	-6.475847e-001	-6.592659e-001
59453125	-6.610207e-001	-6.457523e-001
59593750	-6.737824e-001	-6.314745e-001
59734375	-6.861048e-001	-6.178438e-001
59875000	-6.991697e-001	-6.034645e-001
60015625	-7.107528e-001	-5.885019e-001
60156250	-7.225127e-001	-5.737169e-001
60296875	-7.339546e-001	-5.584441e-001
60437500	-7.453501e-001	-5.429889e-001
60578125	-7.559887e-001	-5.274881e-001
60718750	-7.660460e-001	-5.118285e-001
60859375	-7.761731e-001	-4.958230e-001
61000000	-7.859887e-001	-4.798343e-001
61140625	-7.957214e-001	-4.632971e-001
61281250	-8.046602e-001	-4.463093e-001
61421875	-8.134248e-001	-4.303702e-001
61562500	-8.219306e-001	-4.133000e-001
61703125	-8.297640e-001	-3.958122e-001
61843750	-8.376171e-001	-3.785878e-001
61984375	-8.446148e-001	-3.612144e-001
62125000	-8.515262e-001	-3.436126e-001
62265625	-8.583243e-001	-3.260808e-001
62406250	-8.645137e-001	-3.082884e-001
62546875	-8.702763e-001	-2.904494e-001
62687500	-8.757409e-001	-2.726336e-001
62828125	-8.808283e-001	-2.543578e-001
62968750	-8.855172e-001	-2.361716e-001
63109375	-8.895571e-001	-2.176566e-001
63250000	-8.935420e-001	-1.995098e-001
63390625	-8.972728e-001	-1.812223e-001
63531250	-9.003002e-001	-1.623360e-001
63671875	-9.032905e-001	-1.440245e-001
63812500	-9.057428e-001	-1.256343e-001
63953125	-9.078827e-001	-1.068801e-001
64093750	-9.094923e-001	-8.823016e-002
64234375	-9.105909e-001	-6.947070e-002
64375000	-9.111157e-001	-5.086920e-002
64515625	-9.117408e-001	-3.239712e-002
64656250	-9.117662e-001	-1.355776e-002
64796875	-9.120421e-001	5.080546e-003
64937500	-9.110468e-001	2.396953e-002
65078125	-9.100820e-001	4.264124e-002
65218750	-9.085188e-001	6.075184e-002
65359375	-9.067538e-001	7.937049e-002
65500000	-9.041597e-001	9.794689e-002
65640625	-9.022896e-001	1.164085e-001
65781250	-8.990591e-001	1.346376e-001
65921875	-8.959330e-001	1.528253e-001
66062500	-8.922442e-001	1.711989e-001
66203125	-8.882184e-001	1.892607e-001
66343750	-8.836681e-001	2.070985e-001
66484375	-8.788546e-001	2.249468e-001
66625000	-8.738592e-001	2.432092e-001
66765625	-8.684678e-001	2.606687e-001
66906250	-8.625572e-001	2.783082e-001
67046875	-8.564204e-001	2.952728e-001
67187500	-8.497120e-001	3.127043e-001
67328125	-8.426107e-001	3.300667e-001
67468750	-8.355254e-001	3.468156e-001
67609375	-8.281679e-001	3.635829e-001
67750000	-8.198831e-001	3.802332e-001
67890625	-8.118821e-001	3.969637e-001
68031250	-8.033007e-001	4.130750e-001
68171875	-7.945041e-001	4.290164e-001
68312500	-7.851271e-001	4.448015e-001
68453125	-7.757547e-001	4.605248e-001
68593750	-7.657603e-001	4.759597e-001
68734375	-7.557809e-001	4.915149e-001
68875000	-7.452833e-001	5.064306e-001
69015625	-7.346217e-001	5.215004e-001
69156250	-7.235317e-001	5.359777e-001
69296875	-7.121320e-001	5.504818e-001
69437500	-7.004600e-001	5.643810e-001
69578125	-6.888212e-001	5.782054e-001
69718750	-6.769997e-001	5.922562e-001
69859375	-6.645385e-001	6.057608e-001
70000000	-6.518302e-001	6.187093e-001
70140625	-6.385287e-001	6.312729e-001
70281250	-6.252477e-001	6.439582e-001
70421875	-6.121834e-001	6.568083e-001
70562500	-5.983752e-001	6.689732e-001
70703125	-5.847051e-001	6.802961e-001
70843750	-5.703833e-001	6.917024e-001
70984375	-5.561957e-001	7.032009e-001
71125000	-5.415261e-001	7.139058e-001
71265625	-5.269514e-001	7.245762e-001
71406250	-5.118270e-001	7.349877e-001
71546875	-4.966394e-001	7.449664e-001
71687500	-4.813819e-001	7.544975e-001
71828125	-4.655017e-001	7.638750e-001
71968750	-4.502789e-001	7.727902e-001
72109375	-4.342202e-001	7.819223e-001
72250000	-4.183764e-001	7.900337e-001
72390625	-4.018740e-001	7.983716e-001
72531250	-3.857669e-001	8.058379e-001
72671875	-3.694094e-001	8.134920e-001
72812500	-3.526289e-001	8.209122e-001
72953125	-3.357468e-001	8.274649e-001
73093750	-3.187994e-001	8.340867e-001
73234375	-3.016867e-001	8.400946e-001
73375000	-2.849812e-001	8.458044e-001
73515625	-2.678661e-001	8.508757e-001
73656250	-2.500590e-001	8.560918e-001
73796875	-2.326618e-001	8.608144e-001
73937500	-2.149266e-001	8.646253e-001
74078125	-1.976488e-001	8.692462e-001
74218750	-1.796342e-001	8.725237e-001
74359375	-1.622410e-001	8.759017e-001
74500000	-1.449693e-001	8.789130e-001
74640625	-1.264791e-001	8.815666e-001
74781250	-1.088994e-001	8.840189e-001
74921875	-9.087444e-002	8.862888e-001
75062500	-7.293098e-002	8.873119e-001
75203125	-5.490989e-002	8.882733e-001
75343750	-3.720937e-002	8.894611e-001
75484375	-1.927387e-002	8.897696e-001
75625000	-1.069749e-003	8.900650e-001
75765625	1.693497e-002	8.896927e-001
75906250	3.470312e-002	8.889904e-001
76046875	5.307789e-002	8.880233e-001
76187500	7.086571e-002	8.867689e-001
76328125	8.865649e-002	8.850578e-001
76468750	1.069243e-001	8.832351e-001
76609375	1.244931e-001	8.803906e-001
76750000	1.420525e-001	8.778434e-001
76890625	1.596621e-001	8.747325e-001
77031250	1.774389e-001	8.715752e-001
77171875	1.947757e-001	8.673776e-001
77312500	2.125485e-001	8.632254e-001
77453125	2.304541e-001	8.589492e-001
77593750	2.468839e-001	8.537413e-001
77734375	2.643376e-001	8.484920e-001
77875000	2.813917e-001	8.433364e-001
78015625	2.985293e-001	8.373902e-001
78156250	3.152820e-001	8.314063e-001
78296875	3.326572e-001	8.252557e-001
78437500	3.487848e-001	8.176133e-001
78578125	3.655570e-001	8.107364e-001
78718750	3.813676e-001	8.027537e-001
78859375	3.976205e-001	7.954670e-001
79000000	4.140321e-001	7.875699e-001
79140625	4.296786e-001	7.788510e-001
79281250	4.454130e-001	7.701524e-001
79421875	4.610007e-001	7.610277e-001
79562500	4.758771e-001	7.517155e-001
79703125	4.914730e-001	7.420948e-001
79843750	5.062128e-001	7.319961e-001
79984375	5.210584e-001	7.213723e-001
80125000	5.354894e-001	7.113178e-001
80265625	5.497531e-001	7.001891e-001
80406250	5.638781e-001	6.888458e-001
80546875	5.781558e-001	6.774987e-001
80687500	5.915741e-001	6.655028e-001
80828125	6.049517e-001	6.536588e-001
80968750	6.178829e-001	6.414590e-001
81109375	6.310052e-001	6.291606e-001
81250000	6.437789e-001	6.158952e-001
81390625	6.567127e-001	6.030170e-001
81531250	6.682354e-001	5.897111e-001
81671875	6.808020e-001	5.761002e-001
81812500	6.922535e-001	5.623127e-001
81953125	7.035427e-001	5.483158e-001
82093750	7.148630e-001	5.342155e-001
82234375	7.253242e-001	5.195738e-001
82375000	7.360355e-001	5.054061e-001
82515625	7.461355e-001	4.900650e-001
82656250	7.558862e-001	4.751256e-001
82796875	7.657012e-001	4.597565e-001
82937500	7.751386e-001	4.442437e-001
83078125	7.842485e-001	4.290114e-001
83218750	7.928263e-001	4.128181e-001
83359375	8.010686e-001	3.966607e-001
83500000	8.093267e-001	3.804538e-001
83640625	8.168696e-001	3.636689e-001
83781250	8.245693e-001	3.471257e-001
83921875	8.317013e-001	3.308585e-001
84062500	8.383978e-001	3.138009e-001
84203125	8.449612e-001	2.970243e-001
84343750	8.510256e-001	2.796928e-001
84484375	8.569613e-001	2.623569e-001
84625000	8.625198e-001	2.450601e-001
84765625	8.673885e-001	2.273735e-001
84906250	8.722403e-001	2.100307e-001
85046875	8.765393e-001	1.921276e-001
85187500	8.806557e-001	1.744776e-001
85328125	8.845415e-001	1.565112e-001
85468750	8.871802e-001	1.387392e-001
85609375	8.904280e-001	1.202849e-001
85750000	8.928905e-001	1.025415e-001
85890625	8.950732e-001	8.419383e-002
86031250	8.968994e-001	6.599452e-002
86171875	8.984622e-001	4.757756e-002
86312500	8.996515e-001	2.937641e-002
86453125	9.001814e-001	1.140832e-002
86593750	9.005793e-001	-7.498243e-003
86734375	9.007452e-001	-2.563789e-002
86875000	9.005061e-001	-4.387211e-002
87015625	8.996288e-001	-6.206361e-002
87156250	8.981440e-001	-8.083670e-002
87296875	8.970828e-001	-9.894625e-002
87437500	8.949679e-001	-1.174354e-001
87578125	8.923897e-001	-1.358479e-001
87718750	8.899998e-001	-1.538273e-001
87859375	8.871481e-001	-1.721832e-001
88000000	8.834220e-001	-1.904626e-001
88140625	8.801696e-001	-2.082698e-001
88281250	8.760561e-001	-2.264423e-001
88421875	8.709661e-001	-2.447361e-001
88562500	8.665074e-001	-2.623443e-001
88703125	8.612764e-001	-2.799683e-001
88843750	8.555230e-001	-2.976773e-001
88984375	8.495270e-001	-3.149434e-001
89125000	8.433444e-001	-3.324315e-001
89265625	8.368410e-001	-3.501655e-001
89406250	8.299300e-001	-3.671971e-001
89546875	8.214172e-001	-3.842595e-001
89687500	8.141563e-001	-4.009779e-001
89828125	8.063797e-001	-4.178398e-001
89968750	7.974817e-001	-4.343071e-001
90109375	7.893206e-001	-4.508939e-001
90250000	7.802527e-001	-4.670704e-001
90390625	7.704673e-001	-4.832564e-001
90531250	7.605791e-001	-4.990884e-001
90671875	7.505509e-001	-5.146879e-001
90812500	7.399065e-001	-5.299686e-001
90953125	7.290851e-001	-5.455538e-001
91093750	7.182329e-001	-5.610737e-001
91234375	7.066675e-001	-5.758714e-001
91375000	6.948269e-001	-5.901740e-001
91515625	6.827981e-001	-6.048316e-001
91656250	6.705743e-001	-6.186887e-001
91796875	6.574033e-001	-6.324411e-001
91937500	6.452238e-001	-6.456413e-001
92078125	6.313335e-001	-6.592593e-001
92218750	6.178265e-001	-6.724484e-001
92359375	6.040773e-001	-6.850874e-001
92500000	5.902473e-001	-6.976279e-001
92640625	5.762640e-001	-7.098930e-001
92781250	5.610485e-001	-7.217821e-001
92921875	5.462248e-001	-7.332002e-001
93062500	5.309097e-001	-7.450418e-001
93203125	5.160053e-001	-7.557613e-001
93343750	5.004258e-001	-7.661643e-001
93484375	4.850061e-001	-7.769581e-001
93625000	4.687654e-001	-7.868585e-001
93765625	4.525549e-001	-7.964537e-001
93906250	4.362475e-001	-8.054591e-001
94046875	4.194346e-001	-8.149226e-001
94187500	4.024223e-001	-8.230959e-001
94328125	3.856637e-001	-8.318593e-001
94468750	3.686394e-001	-8.394766e-001
94609375	3.506774e-001	-8.469638e-001
94750000	3.334273e-001	-8.544740e-001
94890625	3.160221e-001	-8.612333e-001
95031250	2.978404e-001	-8.675571e-001
95171875	2.797593e-001	-8.739277e-001
95312500	2.619530e-001	-8.796148e-001
95453125	2.439972e-001	-8.850127e-001
95593750	2.251411e-001	-8.894302e-001
95734375	2.071565e-001	-8.939475e-001
95875000	1.885282e-001	-8.984614e-001
96015625	1.696426e-001	-9.026645e-001
