!Agilent Technologies,E5071C,MY46214392,A.11.36
!Date: Sun Apr 19 15:34:51 2026
!Data & Calibration Information:
!Freq	S11:NONE(--)
!PortZ  Port1:50+j0
!Above PortZ is port z conversion or system Z0 setting when saving the data.
!When reading, reference impedance value at option line is always used.
# Hz S RI R 50
300000	1.073164e-001	4.664845e-003
612313	1.097319e-001	-3.766900e-003
924625	1.106865e-001	-9.188188e-003
1236938	1.115229e-001	-1.451381e-002
1549250	1.106764e-001	-1.940946e-002
1861563	1.098610e-001	-2.446265e-002
2173875	1.087539e-001	-2.931610e-002
2486188	1.074563e-001	-3.367743e-002
2798500	1.060314e-001	-3.827816e-002
3110813	1.042607e-001	-4.242687e-002
3423125	1.024499e-001	-4.693018e-002
3735438	1.005789e-001	-5.171279e-002
4047750	9.785541e-002	-5.576907e-002
4360063	9.537132e-002	-5.948176e-002
4672375	9.325089e-002	-6.332189e-002
4984688	8.942771e-002	-6.751936e-002
5297000	8.685602e-002	-7.111412e-002
5609313	8.413916e-002	-7.433611e-002
5921625	8.014290e-002	-7.798465e-002
6233938	7.679662e-002	-8.149410e-002
6546250	7.339807e-002	-8.435787e-002
6858563	6.970850e-002	-8.700849e-002
7170875	6.594611e-002	-8.989532e-002
7483188	6.187571e-002	-9.257305e-002
7795500	5.744805e-002	-9.497705e-002
8107813	5.330262e-002	-9.730906e-002
8420125	4.899080e-002	-9.904052e-002
8732438	4.450549e-002	-1.009280e-001
9044750	4.003476e-002	-1.027300e-001
9357063	3.541025e-002	-1.039033e-001
9669375	3.073898e-002	-1.049837e-001
9981688	2.614030e-002	-1.061228e-001
10294000	2.142933e-002	-1.067595e-001
10606313	1.654326e-002	-1.074426e-001
10918625	1.184459e-002	-1.075344e-001
11230938	7.169442e-003	-1.077547e-001
11543250	2.500725e-003	-1.076050e-001
11855563	-2.267975e-003	-1.072050e-001
12167875	-7.092867e-003	-1.068027e-001
12480188	-1.168338e-002	-1.060742e-001
12792500	-1.624387e-002	-1.049934e-001
13104813	-2.119955e-002	-1.038742e-001
13417125	-2.575663e-002	-1.023679e-001
13729438	-3.014128e-002	-1.007343e-001
14041750	-3.475541e-002	-9.941315e-002
14354063	-3.881294e-002	-9.711762e-002
14666375	-4.287375e-002	-9.485472e-002
14978688	-4.732732e-002	-9.235010e-002
15291000	-5.126423e-002	-8.994445e-002
15603313	-5.537661e-002	-8.717807e-002
15915625	-5.883106e-002	-8.435028e-002
16227938	-6.262719e-002	-8.106316e-002
16540250	-6.598825e-002	-7.780247e-002
16852563	-6.927514e-002	-7.446160e-002
17164875	-7.236815e-002	-7.128846e-002
17477188	-7.549753e-002	-6.737939e-002
17789500	-7.820319e-002	-6.366772e-002
18101813	-8.077011e-002	-5.980321e-002
18414125	-8.337554e-002	-5.562929e-002
18726438	-8.558359e-002	-5.132267e-002
19038750	-8.776370e-002	-4.717511e-002
19351063	-8.962657e-002	-4.305687e-002
19663375	-9.121172e-002	-3.844417e-002
19975688	-9.291363e-002	-3.402096e-002
20288000	-9.406980e-002	-2.959449e-002
20600313	-9.523228e-002	-2.490563e-002
20912625	-9.610784e-002	-2.046241e-002
21224938	-9.664620e-002	-1.570174e-002
21537250	-9.713397e-002	-1.115274e-002
21849563	-9.727654e-002	-6.403207e-003
22161875	-9.739539e-002	-1.583131e-003
22474188	-9.732483e-002	3.063361e-003
22786500	-9.681285e-002	7.694114e-003
23098813	-9.609084e-002	1.238757e-002
23411125	-9.517829e-002	1.688107e-002
23723438	-9.419882e-002	2.132537e-002
24035750	-9.302230e-002	2.601679e-002
24348063	-9.144953e-002	3.023933e-002
24660375	-8.980670e-002	3.479328e-002
24972688	-8.811096e-002	3.902527e-002
25285000	-8.608977e-002	4.314362e-002
25597313	-8.358274e-002	4.728235e-002
25909625	-8.127733e-002	5.113967e-002
26221938	-7.886463e-002	5.509860e-002
26534250	-7.580377e-002	5.887495e-002
26846563	-7.321367e-002	6.230884e-002
27158875	-6.989848e-002	6.589046e-002
27471188	-6.670162e-002	6.939554e-002
27783500	-6.362254e-002	7.217573e-002
28095813	-5.994640e-002	7.553649e-002
28408125	-5.615359e-002	7.823280e-002
28720438	-5.258271e-002	8.086694e-002
29032750	-4.856541e-002	8.348422e-002
29345063	-4.462141e-002	8.570824e-002
29657375	-4.054960e-002	8.781170e-002
29969688	-3.645388e-002	8.991733e-002
30282000	-3.202601e-002	9.160275e-002
30594313	-2.764254e-002	9.319373e-002
30906625	-2.343544e-002	9.453832e-002
31218938	-1.893315e-002	9.573377e-002
31531250	-1.442879e-002	9.670154e-002
31843563	-9.898983e-003	9.737407e-002
32155875	-5.142705e-003	9.790760e-002
32468188	-6.637132e-004	9.827541e-002
32780500	3.759797e-003	9.851695e-002
33092813	8.578995e-003	9.825126e-002
33405125	1.316589e-002	9.808776e-002
33717438	1.756500e-002	9.739585e-002
34029750	2.207378e-002	9.672083e-002
34342063	2.666405e-002	9.573535e-002
34654375	3.110409e-002	9.475566e-002
34966688	3.562052e-002	9.348879e-002
35279000	4.001313e-002	9.189330e-002
35591313	4.403259e-002	9.024653e-002
35903625	4.844043e-002	8.820460e-002
36215938	5.246139e-002	8.603492e-002
36528250	5.641964e-002	8.400702e-002
36840563	6.036144e-002	8.139127e-002
37152875	6.390193e-002	7.890033e-002
37465188	6.760877e-002	7.590241e-002
37777500	7.105199e-002	7.318347e-002
38089813	7.449268e-002	6.980778e-002
38402125	7.760597e-002	6.686458e-002
38714438	8.090059e-002	6.335604e-002
39026750	8.373034e-002	5.969128e-002
39339063	8.642534e-002	5.594413e-002
39651375	8.912051e-002	5.232822e-002
39963688	9.145648e-002	4.835417e-002
40276000	9.359766e-002	4.447842e-002
40588313	9.567252e-002	4.022307e-002
40900625	9.747378e-002	3.612730e-002
41212938	9.909493e-002	3.193565e-002
41525250	1.006043e-001	2.736439e-002
41837563	1.018935e-001	2.296524e-002
42149875	1.028798e-001	1.858619e-002
42462188	1.036936e-001	1.415805e-002
42774500	1.044851e-001	9.510944e-003
43086813	1.048783e-001	4.887201e-003
43399125	1.050799e-001	5.992406e-004
43711438	1.051801e-001	-4.213159e-003
44023750	1.048876e-001	-8.697905e-003
44336063	1.046725e-001	-1.324659e-002
44648375	1.038803e-001	-1.775114e-002
44960688	1.032929e-001	-2.240701e-002
45273000	1.021639e-001	-2.689035e-002
45585313	1.010392e-001	-3.114753e-002
45897625	9.947762e-002	-3.555850e-002
46209938	9.788509e-002	-3.977360e-002
46522250	9.615905e-002	-4.424184e-002
46834563	9.420374e-002	-4.820328e-002
47146875	9.200805e-002	-5.227686e-002
47459188	8.975097e-002	-5.597925e-002
47771500	8.731594e-002	-6.019298e-002
48083813	8.463166e-002	-6.369140e-002
48396125	8.167810e-002	-6.736283e-002
48708438	7.859368e-002	-7.088282e-002
49020750	7.560816e-002	-7.418661e-002
49333063	7.218227e-002	-7.733231e-002
49645375	6.869608e-002	-8.035235e-002
49957688	6.514118e-002	-8.319564e-002
50270000	6.154600e-002	-8.590086e-002
50582313	5.764994e-002	-8.834346e-002
50894625	5.366984e-002	-9.087974e-002
51206938	4.950296e-002	-9.296245e-002
51519250	4.525330e-002	-9.491776e-002
51831563	4.138179e-002	-9.691315e-002
52143875	3.681656e-002	-9.822983e-002
52456188	3.264150e-002	-9.986835e-002
52768500	2.832902e-002	-1.009286e-001
53080813	2.347622e-002	-1.018257e-001
53393125	1.916230e-002	-1.026063e-001
53705438	1.454978e-002	-1.034524e-001
54017750	1.009176e-002	-1.036846e-001
54330063	5.445820e-003	-1.039664e-001
54642375	9.719880e-004	-1.038987e-001
54954688	-3.724353e-003	-1.036656e-001
55267000	-8.105330e-003	-1.032745e-001
55579313	-1.263979e-002	-1.025825e-001
55891625	-1.719042e-002	-1.017150e-001
56203938	-2.174695e-002	-1.007965e-001
56516250	-2.629690e-002	-9.938427e-002
56828563	-3.055105e-002	-9.805168e-002
57140875	-3.484137e-002	-9.639192e-002
57453188	-3.913564e-002	-9.470052e-002
57765500	-4.301011e-002	-9.259122e-002
58077813	-4.723033e-002	-9.046118e-002
58390125	-5.097284e-002	-8.812194e-002
58702438	-5.485607e-002	-8.559864e-002
59014750	-5.848461e-002	-8.285707e-002
59327063	-6.199118e-002	-7.992559e-002
59639375	-6.540778e-002	-7.692889e-002
59951688	-6.885588e-002	-7.368264e-002
60264000	-7.181285e-002	-7.044102e-002
60576313	-7.487005e-002	-6.690551e-002
60888625	-7.772660e-002	-6.323349e-002
61200938	-8.039081e-002	-5.954547e-002
61513250	-8.287752e-002	-5.580257e-002
61825563	-8.518011e-002	-5.189171e-002
62137875	-8.711821e-002	-4.758018e-002
62450188	-8.926101e-002	-4.361177e-002
62762500	-9.090997e-002	-3.946564e-002
63074813	-9.246690e-002	-3.516395e-002
63387125	-9.382630e-002	-3.093189e-002
63699438	-9.487621e-002	-2.645606e-002
64011750	-9.598742e-002	-2.191945e-002
64324063	-9.673745e-002	-1.738556e-002
64636375	-9.728287e-002	-1.262271e-002
64948688	-9.742873e-002	-8.313299e-003
65261000	-9.774739e-002	-3.834569e-003
65573313	-9.754291e-002	7.174957e-004
65885625	-9.744129e-002	5.239276e-003
66197938	-9.706918e-002	9.904596e-003
66510250	-9.629901e-002	1.432324e-002
66822563	-9.541606e-002	1.881615e-002
67134875	-9.442210e-002	2.320256e-002
67447188	-9.300145e-002	2.746686e-002
67759500	-9.179371e-002	3.185140e-002
68071813	-9.017339e-002	3.616465e-002
68384125	-8.801234e-002	4.011622e-002
68696438	-8.620955e-002	4.421360e-002
69008750	-8.393193e-002	4.820199e-002
69321063	-8.136682e-002	5.205003e-002
69633375	-7.892477e-002	5.583353e-002
69945688	-7.616216e-002	5.946326e-002
70258000	-7.332427e-002	6.293903e-002
70570313	-7.025203e-002	6.627302e-002
70882625	-6.722490e-002	6.949207e-002
71194938	-6.370590e-002	7.265806e-002
71507250	-6.018733e-002	7.551591e-002
71819563	-5.662070e-002	7.805399e-002
72131875	-5.311303e-002	8.078395e-002
72444188	-4.914787e-002	8.318485e-002
72756500	-4.531473e-002	8.553878e-002
73068813	-4.136095e-002	8.748216e-002
73381125	-3.718462e-002	8.942433e-002
73693438	-3.302898e-002	9.119829e-002
74005750	-2.878179e-002	9.259845e-002
74318063	-2.443924e-002	9.395571e-002
74630375	-1.992304e-002	9.504952e-002
74942688	-1.570109e-002	9.593922e-002
75255000	-1.126195e-002	9.651222e-002
75567313	-6.751294e-003	9.715202e-002
75879625	-2.258670e-003	9.741366e-002
76191938	2.284438e-003	9.739537e-002
76504250	6.746434e-003	9.745300e-002
76816563	1.117545e-002	9.717302e-002
77128875	1.567338e-002	9.649508e-002
77441188	2.019092e-002	9.574381e-002
77753500	2.457543e-002	9.489628e-002
78065813	2.894330e-002	9.382195e-002
78378125	3.328869e-002	9.242491e-002
78690438	3.763984e-002	9.100212e-002
79002750	4.168848e-002	8.927781e-002
79315063	4.572108e-002	8.731438e-002
79627375	4.970748e-002	8.523735e-002
79939688	5.363643e-002	8.308880e-002
80252000	5.726833e-002	8.075493e-002
80564313	6.104621e-002	7.798921e-002
80876625	6.448911e-002	7.537510e-002
81188938	6.789615e-002	7.245261e-002
81501250	7.141755e-002	6.935414e-002
81813563	7.416590e-002	6.609039e-002
82125875	7.743512e-002	6.273483e-002
82438188	8.033458e-002	5.930149e-002
82750500	8.291090e-002	5.581675e-002
83062813	8.544959e-002	5.194643e-002
83375125	8.779277e-002	4.804058e-002
83687438	8.967880e-002	4.420203e-002
83999750	9.198468e-002	4.031270e-002
84312063	9.367868e-002	3.601247e-002
84624375	9.538303e-002	3.197016e-002
84936688	9.671961e-002	2.751402e-002
85249000	9.815723e-002	2.333833e-002
85561313	9.901375e-002	1.903199e-002
85873625	9.987468e-002	1.463648e-002
86185938	1.003825e-001	1.005131e-002
86498250	1.009941e-001	5.814180e-003
86810563	1.012385e-001	1.365388e-003
87122875	1.012190e-001	-3.258569e-003
87435188	1.009348e-001	-7.849449e-003
87747500	1.005054e-001	-1.233713e-002
88059813	1.001207e-001	-1.666367e-002
88372125	9.926542e-002	-2.108611e-002
88684438	9.828842e-002	-2.548731e-002
88996750	9.692762e-002	-2.982043e-002
89309063	9.548027e-002	-3.405994e-002
89621375	9.397950e-002	-3.819163e-002
89933688	9.238431e-002	-4.250556e-002
90246000	9.026656e-002	-4.648923e-002
90558313	8.825258e-002	-5.062805e-002
90870625	8.586668e-002	-5.451870e-002
91182938	8.325441e-002	-5.816382e-002
91495250	8.060591e-002	-6.186745e-002
91807563	7.797345e-002	-6.523125e-002
92119875	7.499048e-002	-6.877049e-002
92432188	7.168506e-002	-7.210709e-002
92744500	6.849089e-002	-7.502650e-002
93056813	6.524706e-002	-7.790377e-002
93369125	6.153707e-002	-8.070946e-002
93681438	5.793306e-002	-8.344497e-002
93993750	5.405663e-002	-8.607068e-002
94306063	5.022268e-002	-8.809240e-002
94618375	4.607843e-002	-9.027093e-002
94930688	4.212641e-002	-9.228446e-002
95243000	3.790295e-002	-9.382727e-002
95555313	3.364239e-002	-9.548535e-002
95867625	2.925240e-002	-9.688749e-002
96179938	2.485921e-002	-9.788289e-002
96492250	2.061611e-002	-9.891715e-002
96804563	1.587170e-002	-9.960805e-002
97116875	1.148712e-002	-1.003721e-001
97429188	7.149281e-003	-1.005412e-001
97741500	2.592526e-003	-1.007770e-001
98053813	-1.951569e-003	-1.005448e-001
98366125	-6.798016e-003	-1.002889e-001
98678438	-1.120233e-002	-9.998788e-002
98990750	-1.550322e-002	-9.928293e-002
99303063	-2.006469e-002	-9.837950e-002
99615375	-2.433866e-002	-9.726149e-002
99927688	-2.864597e-002	-9.599019e-002
100240000	-3.314231e-002	-9.477620e-002
100552313	-3.712081e-002	-9.279035e-002
100864625	-4.132411e-002	-9.112589e-002
101176938	-4.548637e-002	-8.890279e-002
101489250	-4.940613e-002	-8.694585e-002
101801563	-5.317716e-002	-8.448083e-002
102113875	-5.695369e-002	-8.189955e-002
102426188	-6.049572e-002	-7.912619e-002
102738500	-6.398854e-002	-7.633039e-002
103050813	-6.739114e-002	-7.333520e-002
103363125	-7.059024e-002	-7.005215e-002
103675438	-7.367193e-002	-6.664563e-002
103987750	-7.671748e-002	-6.336291e-002
104300063	-7.934956e-002	-5.962052e-002
104612375	-8.193786e-002	-5.600545e-002
104924688	-8.449832e-002	-5.214091e-002
105237000	-8.666361e-002	-4.827965e-002
105549313	-8.869728e-002	-4.414044e-002
105861625	-9.067190e-002	-4.006398e-002
106173938	-9.210066e-002	-3.594797e-002
106486250	-9.374235e-002	-3.159125e-002
106798563	-9.500390e-002	-2.727078e-002
107110875	-9.624116e-002	-2.275942e-002
107423188	-9.705825e-002	-1.836617e-002
107735500	-9.783789e-002	-1.400145e-002
108047813	-9.860992e-002	-9.245710e-003
108360125	-9.867143e-002	-4.914018e-003
108672438	-9.886750e-002	-4.505843e-004
108984750	-9.870323e-002	4.220767e-003
109297063	-9.848072e-002	8.797055e-003
109609375	-9.796808e-002	1.319605e-002
109921688	-9.729782e-002	1.769556e-002
110234000	-9.635882e-002	2.228168e-002
110546313	-9.535655e-002	2.661296e-002
110858625	-9.398809e-002	3.089064e-002
111170938	-9.255921e-002	3.526539e-002
111483250	-9.077178e-002	3.950673e-002
111795563	-8.895850e-002	4.368230e-002
112107875	-8.669251e-002	4.765182e-002
112420188	-8.464926e-002	5.168126e-002
112732500	-8.230661e-002	5.547629e-002
113044813	-7.957647e-002	5.904230e-002
113357125	-7.686143e-002	6.283703e-002
113669438	-7.414159e-002	6.619623e-002
113981750	-7.081145e-002	6.961883e-002
114294063	-6.772691e-002	7.290241e-002
114606375	-6.419121e-002	7.596746e-002
114918688	-6.091015e-002	7.878119e-002
115231000	-5.741763e-002	8.155511e-002
115543313	-5.356518e-002	8.425694e-002
115855625	-4.966297e-002	8.654899e-002
116167938	-4.575403e-002	8.877117e-002
116480250	-4.182984e-002	9.081420e-002
116792563	-3.745509e-002	9.290131e-002
117104875	-3.337293e-002	9.450706e-002
117417188	-2.899210e-002	9.602874e-002
117729500	-2.471531e-002	9.733806e-002
118041813	-2.032799e-002	9.845917e-002
118354125	-1.591837e-002	9.920666e-002
118666438	-1.168389e-002	1.000903e-001
118978750	-7.116139e-003	1.005557e-001
119291063	-2.445145e-003	1.009552e-001
119603375	1.887562e-003	1.011048e-001
119915688	6.568042e-003	1.010243e-001
120228000	1.123553e-002	1.006743e-001
120540313	1.558609e-002	1.002208e-001
120852625	2.019020e-002	9.941999e-002
121164938	2.459947e-002	9.838306e-002
121477250	2.886403e-002	9.762205e-002
121789563	3.335914e-002	9.626829e-002
122101875	3.755483e-002	9.477042e-002
122414188	4.187385e-002	9.284652e-002
122726500	4.581291e-002	9.106579e-002
123038813	4.997321e-002	8.916250e-002
123351125	5.396314e-002	8.687780e-002
123663438	5.786128e-002	8.462109e-002
123975750	6.134443e-002	8.189815e-002
124288063	6.501308e-002	7.912070e-002
124600375	6.858053e-002	7.632113e-002
124912688	7.187182e-002	7.320560e-002
125225000	7.504810e-002	7.003730e-002
125537313	7.821066e-002	6.675807e-002
125849625	8.118387e-002	6.332365e-002
126161938	8.378420e-002	5.972663e-002
126474250	8.626551e-002	5.613168e-002
126786563	8.900206e-002	5.212059e-002
127098875	9.113962e-002	4.834623e-002
127411188	9.320763e-002	4.430615e-002
127723500	9.496460e-002	4.019038e-002
128035813	9.670150e-002	3.598497e-002
128348125	9.809920e-002	3.178162e-002
128660438	9.944008e-002	2.725358e-002
128972750	1.005997e-001	2.299378e-002
129285063	1.014233e-001	1.855761e-002
129597375	1.022532e-001	1.415143e-002
129909688	1.027592e-001	9.641306e-003
130222000	1.030817e-001	5.191554e-003
130534313	1.032971e-001	8.042830e-004
130846625	1.031049e-001	-3.945597e-003
131158938	1.028040e-001	-8.181319e-003
131471250	1.022821e-001	-1.277653e-002
131783563	1.015293e-001	-1.731613e-002
132095875	1.008247e-001	-2.173487e-002
132408188	9.952884e-002	-2.604589e-002
132720500	9.840141e-002	-3.037398e-002
133032813	9.700697e-002	-3.466818e-002
133345125	9.531303e-002	-3.875314e-002
133657438	9.338051e-002	-4.303723e-002
133969750	9.123605e-002	-4.686300e-002
134282063	8.908001e-002	-5.093328e-002
134594375	8.676680e-002	-5.455281e-002
134906688	8.419372e-002	-5.821947e-002
135219000	8.141333e-002	-6.194820e-002
135531313	7.852511e-002	-6.530045e-002
135843625	7.562662e-002	-6.868727e-002
136155938	7.246136e-002	-7.182142e-002
136468250	6.902586e-002	-7.485239e-002
136780563	6.558416e-002	-7.787103e-002
137092875	6.219746e-002	-8.046055e-002
137405188	5.828472e-002	-8.303509e-002
137717500	5.438438e-002	-8.552480e-002
138029813	5.063551e-002	-8.746365e-002
138342125	4.662944e-002	-8.947074e-002
138654438	4.248604e-002	-9.145517e-002
138966750	3.842151e-002	-9.320410e-002
139279063	3.400219e-002	-9.454896e-002
139591375	2.986152e-002	-9.592009e-002
139903688	2.550836e-002	-9.693526e-002
140216000	2.120936e-002	-9.774995e-002
140528313	1.659569e-002	-9.850343e-002
140840625	1.218975e-002	-9.890247e-002
141152938	7.669730e-003	-9.927248e-002
141465250	3.293761e-003	-9.924307e-002
141777563	-1.115861e-003	-9.928012e-002
142089875	-5.794090e-003	-9.887995e-002
142402188	-1.010386e-002	-9.848257e-002
142714500	-1.454127e-002	-9.762033e-002
143026813	-1.875946e-002	-9.662112e-002
143339125	-2.318003e-002	-9.566374e-002
143651438	-2.749359e-002	-9.430600e-002
143963750	-3.165949e-002	-9.301329e-002
144276063	-3.595119e-002	-9.120469e-002
144588375	-3.989152e-002	-8.926497e-002
144900688	-4.388270e-002	-8.718174e-002
145213000	-4.769072e-002	-8.506650e-002
145525313	-5.141480e-002	-8.263187e-002
145837625	-5.495402e-002	-7.999538e-002
146149938	-5.853844e-002	-7.720640e-002
146462250	-6.204457e-002	-7.437231e-002
146774563	-6.522492e-002	-7.140145e-002
147086875	-6.845039e-002	-6.815790e-002
147399188	-7.142209e-002	-6.467753e-002
147711500	-7.403979e-002	-6.141943e-002
148023813	-7.671460e-002	-5.788212e-002
148336125	-7.942271e-002	-5.411191e-002
148648438	-8.158229e-002	-5.023582e-002
148960750	-8.379402e-002	-4.643872e-002
149273063	-8.579617e-002	-4.245428e-002
149585375	-8.744792e-002	-3.840784e-002
149897688	-8.909213e-002	-3.422323e-002
150210000	-9.040252e-002	-3.014507e-002
150522313	-9.180309e-002	-2.575740e-002
150834625	-9.265127e-002	-2.149017e-002
151146938	-9.350486e-002	-1.715037e-002
151459250	-9.423822e-002	-1.253737e-002
151771563	-9.459644e-002	-8.216629e-003
152083875	-9.482752e-002	-3.972175e-003
152396188	-9.487987e-002	5.453869e-004
152708500	-9.451377e-002	4.851058e-003
153020813	-9.428423e-002	9.423355e-003
153333125	-9.382111e-002	1.364030e-002
153645438	-9.287135e-002	1.809634e-002
153957750	-9.196493e-002	2.240667e-002
154270063	-9.089849e-002	2.674057e-002
154582375	-8.944562e-002	3.088789e-002
154894688	-8.791774e-002	3.502529e-002
155207000	-8.621571e-002	3.918396e-002
155519313	-8.420361e-002	4.321836e-002
155831625	-8.229578e-002	4.683581e-002
156143938	-8.003085e-002	5.089699e-002
