!Agilent Technologies,E5071C,MY46214392,A.11.36
!Date: Fri Apr 24 09:58:04 2026
!Data & Calibration Information:
!Freq	S11:SOLT1(ON)
!PortZ  Port1:50+j0
!Above PortZ is port z conversion or system Z0 setting when saving the data.
!When reading, reference impedance value at option line is always used.
# Hz S RI R 50
25000000	-7.267018e-001	4.058405e-001
25140625	-7.181059e-001	4.201771e-001
25281250	-7.093723e-001	4.348344e-001
25421875	-7.001627e-001	4.489880e-001
25562500	-6.903259e-001	4.632579e-001
25703125	-6.806128e-001	4.772416e-001
25843750	-6.701432e-001	4.909712e-001
25984375	-6.602614e-001	5.047630e-001
26125000	-6.492766e-001	5.177534e-001
26265625	-6.385054e-001	5.307796e-001
26406250	-6.273004e-001	5.435935e-001
26546875	-6.158116e-001	5.561439e-001
26687500	-6.041362e-001	5.682549e-001
26828125	-5.922321e-001	5.804924e-001
26968750	-5.803322e-001	5.924583e-001
27109375	-5.678562e-001	6.036779e-001
27250000	-5.549436e-001	6.150938e-001
27390625	-5.420569e-001	6.264165e-001
27531250	-5.290381e-001	6.369208e-001
27671875	-5.159820e-001	6.476629e-001
27812500	-5.023957e-001	6.580462e-001
27953125	-4.886103e-001	6.678100e-001
28093750	-4.747450e-001	6.776874e-001
28234375	-4.606917e-001	6.869878e-001
28375000	-4.463019e-001	6.960220e-001
28515625	-4.324873e-001	7.052032e-001
28656250	-4.173653e-001	7.136958e-001
28796875	-4.025760e-001	7.218135e-001
28937500	-3.878623e-001	7.298492e-001
29078125	-3.727567e-001	7.376312e-001
29218750	-3.579624e-001	7.446130e-001
29359375	-3.422310e-001	7.515811e-001
29500000	-3.272996e-001	7.582062e-001
29640625	-3.112236e-001	7.648660e-001
29781250	-2.955915e-001	7.710010e-001
29921875	-2.798620e-001	7.765989e-001
30062500	-2.635285e-001	7.824148e-001
30203125	-2.475472e-001	7.870575e-001
30343750	-2.315072e-001	7.919147e-001
30484375	-2.152717e-001	7.962318e-001
30625000	-1.991208e-001	8.001146e-001
30765625	-1.831596e-001	8.038713e-001
30906250	-1.662553e-001	8.074165e-001
31046875	-1.496880e-001	8.104686e-001
31187500	-1.332301e-001	8.134262e-001
31328125	-1.161699e-001	8.158243e-001
31468750	-9.961511e-002	8.181203e-001
31609375	-8.292942e-002	8.194252e-001
31750000	-6.653235e-002	8.205970e-001
31890625	-4.990343e-002	8.223677e-001
32031250	-3.245780e-002	8.232053e-001
32171875	-1.610691e-002	8.231767e-001
32312500	5.428234e-004	8.235051e-001
32453125	1.714398e-002	8.234473e-001
32593750	3.378425e-002	8.225172e-001
32734375	5.099615e-002	8.214802e-001
32875000	6.797230e-002	8.205938e-001
33015625	8.442121e-002	8.190539e-001
33156250	1.011853e-001	8.167283e-001
33296875	1.174809e-001	8.147655e-001
33437500	1.340719e-001	8.118940e-001
33578125	1.507355e-001	8.092619e-001
33718750	1.667628e-001	8.062066e-001
33859375	1.829262e-001	8.019961e-001
34000000	1.995374e-001	7.983401e-001
34140625	2.159111e-001	7.943238e-001
34281250	2.319834e-001	7.899870e-001
34421875	2.477277e-001	7.848847e-001
34562500	2.636784e-001	7.800322e-001
34703125	2.797465e-001	7.737922e-001
34843750	2.954853e-001	7.679721e-001
34984375	3.107474e-001	7.619109e-001
35125000	3.260636e-001	7.557414e-001
35265625	3.415803e-001	7.487169e-001
35406250	3.569567e-001	7.416764e-001
35546875	3.716167e-001	7.344729e-001
35687500	3.864214e-001	7.268678e-001
35828125	4.011952e-001	7.185781e-001
35968750	4.156122e-001	7.107657e-001
36109375	4.300487e-001	7.019360e-001
36250000	4.445629e-001	6.930935e-001
36390625	4.585998e-001	6.840936e-001
36531250	4.729136e-001	6.748509e-001
36671875	4.859116e-001	6.645967e-001
36812500	4.991875e-001	6.548355e-001
36953125	5.125116e-001	6.445892e-001
37093750	5.252606e-001	6.343472e-001
37234375	5.381440e-001	6.236407e-001
37375000	5.506508e-001	6.125323e-001
37515625	5.630765e-001	6.007655e-001
37656250	5.755234e-001	5.896648e-001
37796875	5.874575e-001	5.779036e-001
37937500	5.987245e-001	5.664633e-001
38078125	6.103026e-001	5.537878e-001
38218750	6.219031e-001	5.416778e-001
38359375	6.326092e-001	5.286802e-001
38500000	6.433241e-001	5.156479e-001
38640625	6.536293e-001	5.024168e-001
38781250	6.641585e-001	4.892028e-001
38921875	6.737143e-001	4.761940e-001
39062500	6.832086e-001	4.624603e-001
39203125	6.925292e-001	4.481140e-001
39343750	7.022024e-001	4.341562e-001
39484375	7.105110e-001	4.198460e-001
39625000	7.190436e-001	4.056375e-001
39765625	7.275118e-001	3.909187e-001
39906250	7.356685e-001	3.759525e-001
40046875	7.427564e-001	3.612302e-001
40187500	7.504582e-001	3.462482e-001
40328125	7.572901e-001	3.307007e-001
40468750	7.638216e-001	3.156386e-001
40609375	7.703625e-001	3.000990e-001
40750000	7.764557e-001	2.843266e-001
40890625	7.821115e-001	2.686826e-001
41031250	7.876940e-001	2.526478e-001
41171875	7.926718e-001	2.366540e-001
41312500	7.976503e-001	2.205188e-001
41453125	8.020825e-001	2.041591e-001
41593750	8.063790e-001	1.881945e-001
41734375	8.096332e-001	1.717903e-001
41875000	8.134093e-001	1.553605e-001
42015625	8.165183e-001	1.383678e-001
42156250	8.196568e-001	1.220103e-001
42296875	8.216678e-001	1.053566e-001
42437500	8.241849e-001	8.891276e-002
42578125	8.257839e-001	7.176029e-002
42718750	8.272564e-001	5.531962e-002
42859375	8.284263e-001	3.803593e-002
43000000	8.289869e-001	2.116808e-002
43140625	8.294111e-001	4.308974e-003
43281250	8.296480e-001	-1.223868e-002
43421875	8.294658e-001	-2.938667e-002
43562500	8.289913e-001	-4.603895e-002
43703125	8.280157e-001	-6.290535e-002
43843750	8.267237e-001	-7.996283e-002
43984375	8.249576e-001	-9.671753e-002
44125000	8.230760e-001	-1.135519e-001
44265625	8.206871e-001	-1.301189e-001
44406250	8.184424e-001	-1.466899e-001
44546875	8.151358e-001	-1.633465e-001
44687500	8.115331e-001	-1.801171e-001
44828125	8.083315e-001	-1.965472e-001
44968750	8.042748e-001	-2.130914e-001
45109375	7.998462e-001	-2.296194e-001
45250000	7.954219e-001	-2.459564e-001
45390625	7.901881e-001	-2.616858e-001
45531250	7.849963e-001	-2.782086e-001
45671875	7.787509e-001	-2.938123e-001
45812500	7.733973e-001	-3.101372e-001
45953125	7.668913e-001	-3.258306e-001
46093750	7.605150e-001	-3.414171e-001
46234375	7.535766e-001	-3.568936e-001
46375000	7.461472e-001	-3.722687e-001
46515625	7.385598e-001	-3.872882e-001
46656250	7.305364e-001	-4.022436e-001
46796875	7.220619e-001	-4.174649e-001
46937500	7.136717e-001	-4.320422e-001
47078125	7.048512e-001	-4.467344e-001
47218750	6.956370e-001	-4.608090e-001
47359375	6.863042e-001	-4.753023e-001
47500000	6.767788e-001	-4.891202e-001
47640625	6.665170e-001	-5.030440e-001
47781250	6.561687e-001	-5.167821e-001
47921875	6.460856e-001	-5.299081e-001
48062500	6.347257e-001	-5.431855e-001
48203125	6.238769e-001	-5.564019e-001
48343750	6.123524e-001	-5.691102e-001
48484375	6.005035e-001	-5.810611e-001
48625000	5.884942e-001	-5.936887e-001
48765625	5.768291e-001	-6.055319e-001
48906250	5.640028e-001	-6.172696e-001
49046875	5.512612e-001	-6.290421e-001
49187500	5.383129e-001	-6.400748e-001
49328125	5.252015e-001	-6.510203e-001
49468750	5.124869e-001	-6.615509e-001
49609375	4.985946e-001	-6.725484e-001
49750000	4.846945e-001	-6.823341e-001
49890625	4.707955e-001	-6.923491e-001
50031250	4.565486e-001	-7.022179e-001
50171875	4.419211e-001	-7.110351e-001
50312500	4.275718e-001	-7.200517e-001
50453125	4.125324e-001	-7.286922e-001
50593750	3.977792e-001	-7.369470e-001
50734375	3.823245e-001	-7.449394e-001
50875000	3.669346e-001	-7.531883e-001
51015625	3.519190e-001	-7.602615e-001
51156250	3.361538e-001	-7.674138e-001
51296875	3.202061e-001	-7.743145e-001
51437500	3.043504e-001	-7.805704e-001
51578125	2.882834e-001	-7.869912e-001
51718750	2.723959e-001	-7.923761e-001
51859375	2.561631e-001	-7.980202e-001
52000000	2.395236e-001	-8.034278e-001
52140625	2.232117e-001	-8.078647e-001
52281250	2.060928e-001	-8.124896e-001
52421875	1.895167e-001	-8.167648e-001
52562500	1.733468e-001	-8.198684e-001
52703125	1.563412e-001	-8.240278e-001
52843750	1.394305e-001	-8.269424e-001
52984375	1.220045e-001	-8.293221e-001
53125000	1.050083e-001	-8.316965e-001
53265625	8.816893e-002	-8.339751e-001
53406250	7.107627e-002	-8.350097e-001
53546875	5.361041e-002	-8.361759e-001
53687500	3.666769e-002	-8.372688e-001
53828125	1.956926e-002	-8.379748e-001
53968750	2.475538e-003	-8.383563e-001
54109375	-1.491780e-002	-8.383005e-001
54250000	-3.233539e-002	-8.377105e-001
54390625	-4.925313e-002	-8.364372e-001
54531250	-6.652859e-002	-8.353702e-001
54671875	-8.367625e-002	-8.342327e-001
54812500	-1.007955e-001	-8.315131e-001
54953125	-1.176682e-001	-8.298126e-001
55093750	-1.345237e-001	-8.268581e-001
55234375	-1.520014e-001	-8.238868e-001
55375000	-1.685984e-001	-8.200653e-001
55515625	-1.852712e-001	-8.167787e-001
55656250	-2.021055e-001	-8.125987e-001
55796875	-2.187300e-001	-8.086524e-001
55937500	-2.353777e-001	-8.036501e-001
56078125	-2.520625e-001	-7.987638e-001
56218750	-2.679742e-001	-7.931151e-001
56359375	-2.845249e-001	-7.871060e-001
56500000	-3.005521e-001	-7.809629e-001
56640625	-3.164880e-001	-7.746103e-001
56781250	-3.322648e-001	-7.680198e-001
56921875	-3.476122e-001	-7.606660e-001
57062500	-3.632063e-001	-7.535079e-001
57203125	-3.788321e-001	-7.458150e-001
57343750	-3.938102e-001	-7.379178e-001
57484375	-4.089461e-001	-7.289565e-001
57625000	-4.234040e-001	-7.204030e-001
57765625	-4.382026e-001	-7.112669e-001
57906250	-4.524420e-001	-7.019637e-001
58046875	-4.670073e-001	-6.927573e-001
58187500	-4.810710e-001	-6.829372e-001
58328125	-4.947612e-001	-6.724805e-001
58468750	-5.085901e-001	-6.623733e-001
58609375	-5.215041e-001	-6.515741e-001
58750000	-5.347145e-001	-6.404248e-001
58890625	-5.478453e-001	-6.291225e-001
59031250	-5.606147e-001	-6.176377e-001
59171875	-5.727269e-001	-6.058551e-001
59312500	-5.853287e-001	-5.938250e-001
59453125	-5.972394e-001	-5.816135e-001
59593750	-6.086900e-001	-5.686847e-001
59734375	-6.201225e-001	-5.562492e-001
59875000	-6.315067e-001	-5.431456e-001
60015625	-6.419998e-001	-5.297179e-001
60156250	-6.523146e-001	-5.162239e-001
60296875	-6.629202e-001	-5.028275e-001
60437500	-6.730597e-001	-4.886907e-001
60578125	-6.831067e-001	-4.747830e-001
60718750	-6.918927e-001	-4.607678e-001
60859375	-7.008767e-001	-4.462318e-001
61000000	-7.098545e-001	-4.314267e-001
61140625	-7.183268e-001	-4.166304e-001
61281250	-7.265508e-001	-4.015300e-001
61421875	-7.342475e-001	-3.868040e-001
61562500	-7.421697e-001	-3.714595e-001
61703125	-7.491052e-001	-3.558018e-001
61843750	-7.560591e-001	-3.404608e-001
61984375	-7.625846e-001	-3.245995e-001
62125000	-7.687030e-001	-3.089816e-001
62265625	-7.747466e-001	-2.926920e-001
62406250	-7.802752e-001	-2.767978e-001
62546875	-7.854586e-001	-2.609381e-001
62687500	-7.901310e-001	-2.445297e-001
62828125	-7.949578e-001	-2.279689e-001
62968750	-7.992488e-001	-2.117684e-001
63109375	-8.025769e-001	-1.950929e-001
63250000	-8.065729e-001	-1.787085e-001
63390625	-8.098733e-001	-1.620837e-001
63531250	-8.126466e-001	-1.453691e-001
63671875	-8.149716e-001	-1.286843e-001
63812500	-8.173586e-001	-1.119993e-001
63953125	-8.194512e-001	-9.508280e-002
64093750	-8.206984e-001	-7.825328e-002
64234375	-8.218134e-001	-6.125472e-002
64375000	-8.223798e-001	-4.458664e-002
64515625	-8.227239e-001	-2.786560e-002
64656250	-8.228659e-001	-1.086198e-002
64796875	-8.227738e-001	5.568231e-003
64937500	-8.220442e-001	2.274806e-002
65078125	-8.209617e-001	3.956836e-002
65218750	-8.197108e-001	5.624676e-002
65359375	-8.178914e-001	7.305253e-002
65500000	-8.158210e-001	8.948335e-002
65640625	-8.138777e-001	1.061212e-001
65781250	-8.110845e-001	1.231884e-001
65921875	-8.080467e-001	1.393347e-001
66062500	-8.049999e-001	1.556423e-001
66203125	-8.013862e-001	1.721074e-001
66343750	-7.972225e-001	1.881495e-001
66484375	-7.927047e-001	2.044253e-001
66625000	-7.884739e-001	2.207583e-001
66765625	-7.833405e-001	2.365873e-001
66906250	-7.779349e-001	2.525077e-001
67046875	-7.723499e-001	2.681072e-001
67187500	-7.664731e-001	2.836772e-001
67328125	-7.602386e-001	2.991468e-001
67468750	-7.533970e-001	3.146424e-001
67609375	-7.468788e-001	3.297607e-001
67750000	-7.397321e-001	3.446867e-001
67890625	-7.320042e-001	3.595602e-001
68031250	-7.240928e-001	3.743373e-001
68171875	-7.163544e-001	3.887788e-001
68312500	-7.081932e-001	4.030161e-001
68453125	-6.995291e-001	4.171118e-001
68593750	-6.903796e-001	4.314093e-001
68734375	-6.814212e-001	4.453121e-001
68875000	-6.718129e-001	4.585587e-001
69015625	-6.622021e-001	4.719537e-001
69156250	-6.520145e-001	4.852422e-001
69296875	-6.418268e-001	4.981356e-001
69437500	-6.313704e-001	5.108604e-001
69578125	-6.210583e-001	5.236028e-001
69718750	-6.100582e-001	5.359529e-001
69859375	-5.987280e-001	5.484011e-001
70000000	-5.874324e-001	5.599820e-001
70140625	-5.754565e-001	5.711847e-001
70281250	-5.632390e-001	5.831141e-001
70421875	-5.511843e-001	5.942193e-001
70562500	-5.388089e-001	6.054381e-001
70703125	-5.262024e-001	6.157899e-001
70843750	-5.136299e-001	6.258773e-001
70984375	-5.004458e-001	6.363173e-001
71125000	-4.878001e-001	6.458828e-001
71265625	-4.742420e-001	6.556291e-001
71406250	-4.605952e-001	6.652589e-001
71546875	-4.467549e-001	6.738802e-001
71687500	-4.328543e-001	6.825602e-001
71828125	-4.188230e-001	6.910817e-001
71968750	-4.047647e-001	6.990537e-001
72109375	-3.904832e-001	7.072308e-001
72250000	-3.759194e-001	7.145412e-001
72390625	-3.609347e-001	7.219072e-001
72531250	-3.464682e-001	7.288612e-001
72671875	-3.315035e-001	7.357948e-001
72812500	-3.166629e-001	7.423591e-001
72953125	-3.010073e-001	7.480728e-001
73093750	-2.856199e-001	7.540461e-001
73234375	-2.702807e-001	7.595975e-001
73375000	-2.548938e-001	7.645619e-001
73515625	-2.392381e-001	7.691125e-001
73656250	-2.234485e-001	7.740640e-001
73796875	-2.077541e-001	7.784285e-001
73937500	-1.918472e-001	7.818715e-001
74078125	-1.761959e-001	7.857191e-001
74218750	-1.596777e-001	7.887674e-001
74359375	-1.440716e-001	7.917926e-001
74500000	-1.280463e-001	7.941878e-001
74640625	-1.115272e-001	7.965785e-001
74781250	-9.575951e-002	7.986061e-001
74921875	-7.931618e-002	8.009965e-001
75062500	-6.310536e-002	8.018962e-001
75203125	-4.671160e-002	8.026903e-001
75343750	-3.064062e-002	8.035772e-001
75484375	-1.452215e-002	8.039907e-001
75625000	2.062685e-003	8.039311e-001
75765625	1.846156e-002	8.035132e-001
75906250	3.393941e-002	8.032495e-001
76046875	5.098781e-002	8.024671e-001
76187500	6.700061e-002	8.010972e-001
76328125	8.332825e-002	7.991716e-001
76468750	9.942193e-002	7.973963e-001
76609375	1.154968e-001	7.948086e-001
76750000	1.315050e-001	7.924354e-001
76890625	1.472259e-001	7.897512e-001
77031250	1.631991e-001	7.867481e-001
77171875	1.793412e-001	7.828699e-001
77312500	1.951854e-001	7.791280e-001
77453125	2.112473e-001	7.753360e-001
77593750	2.262993e-001	7.702700e-001
77734375	2.419100e-001	7.655622e-001
77875000	2.575831e-001	7.608555e-001
78015625	2.727189e-001	7.554178e-001
78156250	2.880589e-001	7.497466e-001
78296875	3.036028e-001	7.441424e-001
78437500	3.184498e-001	7.374236e-001
78578125	3.332666e-001	7.310152e-001
78718750	3.479148e-001	7.238226e-001
78859375	3.623675e-001	7.168439e-001
79000000	3.773345e-001	7.098080e-001
79140625	3.915395e-001	7.018448e-001
79281250	4.054330e-001	6.939344e-001
79421875	4.195336e-001	6.856026e-001
79562500	4.331614e-001	6.770763e-001
79703125	4.470868e-001	6.682301e-001
79843750	4.604703e-001	6.590128e-001
79984375	4.737327e-001	6.496381e-001
80125000	4.865815e-001	6.403157e-001
80265625	4.998433e-001	6.300486e-001
80406250	5.125201e-001	6.197544e-001
80546875	5.253149e-001	6.092315e-001
80687500	5.374792e-001	5.985851e-001
80828125	5.492454e-001	5.877215e-001
80968750	5.610324e-001	5.766171e-001
81109375	5.729900e-001	5.653891e-001
81250000	5.842745e-001	5.533338e-001
81390625	5.958287e-001	5.416613e-001
81531250	6.062857e-001	5.295580e-001
81671875	6.175675e-001	5.173946e-001
81812500	6.279135e-001	5.050166e-001
81953125	6.380105e-001	4.919803e-001
82093750	6.481052e-001	4.791767e-001
82234375	6.574672e-001	4.658486e-001
82375000	6.672152e-001	4.527330e-001
82515625	6.763083e-001	4.388128e-001
82656250	6.848696e-001	4.255706e-001
82796875	6.935831e-001	4.113695e-001
82937500	7.020555e-001	3.974897e-001
83078125	7.100957e-001	3.835339e-001
83218750	7.181063e-001	3.688521e-001
83359375	7.256581e-001	3.542624e-001
83500000	7.328631e-001	3.393239e-001
83640625	7.395695e-001	3.244754e-001
83781250	7.463233e-001	3.094504e-001
83921875	7.527568e-001	2.945899e-001
84062500	7.587678e-001	2.791940e-001
84203125	7.644860e-001	2.635621e-001
84343750	7.699691e-001	2.479973e-001
84484375	7.755120e-001	2.324911e-001
84625000	7.798851e-001	2.167470e-001
84765625	7.843866e-001	2.008155e-001
84906250	7.886782e-001	1.847532e-001
85046875	7.923302e-001	1.687403e-001
85187500	7.958674e-001	1.526897e-001
85328125	7.992651e-001	1.368429e-001
85468750	8.018359e-001	1.205342e-001
85609375	8.042047e-001	1.039041e-001
85750000	8.065983e-001	8.745627e-002
85890625	8.083797e-001	7.120657e-002
86031250	8.102177e-001	5.465634e-002
86171875	8.112190e-001	3.798318e-002
86312500	8.121164e-001	2.179507e-002
86453125	8.125604e-001	5.132535e-003
86593750	8.128305e-001	-1.126428e-002
86734375	8.127087e-001	-2.804733e-002
86875000	8.123367e-001	-4.424094e-002
87015625	8.114723e-001	-6.111071e-002
87156250	8.103763e-001	-7.749526e-002
87296875	8.088180e-001	-9.431185e-002
87437500	8.071499e-001	-1.106985e-001
87578125	8.049571e-001	-1.277294e-001
87718750	8.025117e-001	-1.436391e-001
87859375	7.996930e-001	-1.603005e-001
88000000	7.963880e-001	-1.767213e-001
88140625	7.930098e-001	-1.927574e-001
88281250	7.894014e-001	-2.092730e-001
88421875	7.846507e-001	-2.255281e-001
88562500	7.806797e-001	-2.415089e-001
88703125	7.756277e-001	-2.574955e-001
88843750	7.703498e-001	-2.735780e-001
88984375	7.645867e-001	-2.891052e-001
89125000	7.588023e-001	-3.047670e-001
89265625	7.527452e-001	-3.204744e-001
89406250	7.464318e-001	-3.356083e-001
89546875	7.386985e-001	-3.512584e-001
89687500	7.324634e-001	-3.665543e-001
89828125	7.247714e-001	-3.813346e-001
89968750	7.170080e-001	-3.960710e-001
90109375	7.094259e-001	-4.111623e-001
90250000	7.009323e-001	-4.257850e-001
90390625	6.918842e-001	-4.398884e-001
90531250	6.833548e-001	-4.543250e-001
90671875	6.743281e-001	-4.685629e-001
90812500	6.639867e-001	-4.819046e-001
90953125	6.544759e-001	-4.960932e-001
91093750	6.446806e-001	-5.098831e-001
91234375	6.342454e-001	-5.227609e-001
91375000	6.233741e-001	-5.360598e-001
91515625	6.126220e-001	-5.487270e-001
91656250	6.008425e-001	-5.616070e-001
91796875	5.892361e-001	-5.738653e-001
91937500	5.779795e-001	-5.856343e-001
92078125	5.657313e-001	-5.976927e-001
92218750	5.534604e-001	-6.094478e-001
92359375	5.410089e-001	-6.206984e-001
92500000	5.281173e-001	-6.318463e-001
92640625	5.156699e-001	-6.429574e-001
92781250	5.024036e-001	-6.535842e-001
92921875	4.882683e-001	-6.640147e-001
93062500	4.748664e-001	-6.744103e-001
93203125	4.609869e-001	-6.841313e-001
93343750	4.470036e-001	-6.934684e-001
93484375	4.330534e-001	-7.030328e-001
93625000	4.184965e-001	-7.117914e-001
93765625	4.039913e-001	-7.202378e-001
93906250	3.894238e-001	-7.283632e-001
94046875	3.735654e-001	-7.367487e-001
94187500	3.586244e-001	-7.441831e-001
94328125	3.433075e-001	-7.517317e-001
94468750	3.278413e-001	-7.585168e-001
94609375	3.116235e-001	-7.655063e-001
94750000	2.961598e-001	-7.714925e-001
94890625	2.806190e-001	-7.778528e-001
95031250	2.639315e-001	-7.834810e-001
95171875	2.477372e-001	-7.894692e-001
95312500	2.315525e-001	-7.943041e-001
95453125	2.154110e-001	-7.987756e-001
95593750	1.985185e-001	-8.029594e-001
95734375	1.818519e-001	-8.069095e-001
95875000	1.656686e-001	-8.109447e-001
96015625	1.485614e-001	-8.145399e-001
