!Agilent Technologies,E5071C,MY46214392,A.11.36
!Date: Fri Apr 24 09:59:05 2026
!Data & Calibration Information:
!Freq	S11:SOLT1(ON)
!PortZ  Port1:50+j0
!Above PortZ is port z conversion or system Z0 setting when saving the data.
!When reading, reference impedance value at option line is always used.
# Hz S RI R 50
25000000	-7.770910e-001	4.417455e-001
25140625	-7.678493e-001	4.572618e-001
25281250	-7.582933e-001	4.722612e-001
25421875	-7.481751e-001	4.876733e-001
25562500	-7.377491e-001	5.030941e-001
25703125	-7.268504e-001	5.178681e-001
25843750	-7.154545e-001	5.324886e-001
25984375	-7.047360e-001	5.469265e-001
26125000	-6.929249e-001	5.611437e-001
26265625	-6.815488e-001	5.744079e-001
26406250	-6.690394e-001	5.888413e-001
26546875	-6.565616e-001	6.015779e-001
26687500	-6.437554e-001	6.151866e-001
26828125	-6.312221e-001	6.280469e-001
26968750	-6.180604e-001	6.407086e-001
27109375	-6.043492e-001	6.527696e-001
27250000	-5.907591e-001	6.648469e-001
27390625	-5.767570e-001	6.769667e-001
27531250	-5.627670e-001	6.880308e-001
27671875	-5.486268e-001	6.995686e-001
27812500	-5.340710e-001	7.104028e-001
27953125	-5.188829e-001	7.207590e-001
28093750	-5.040586e-001	7.311767e-001
28234375	-4.887964e-001	7.412747e-001
28375000	-4.730141e-001	7.508670e-001
28515625	-4.579640e-001	7.606306e-001
28656250	-4.420436e-001	7.695495e-001
28796875	-4.260253e-001	7.780368e-001
28937500	-4.099319e-001	7.864161e-001
29078125	-3.939567e-001	7.948214e-001
29218750	-3.775779e-001	8.023144e-001
29359375	-3.610008e-001	8.094941e-001
29500000	-3.447312e-001	8.161492e-001
29640625	-3.274377e-001	8.234185e-001
29781250	-3.104452e-001	8.296266e-001
29921875	-2.936644e-001	8.352154e-001
30062500	-2.759302e-001	8.415157e-001
30203125	-2.586751e-001	8.465714e-001
30343750	-2.416959e-001	8.515187e-001
30484375	-2.238160e-001	8.556499e-001
30625000	-2.068206e-001	8.601457e-001
30765625	-1.896902e-001	8.639989e-001
30906250	-1.715600e-001	8.679280e-001
31046875	-1.535684e-001	8.707029e-001
31187500	-1.359416e-001	8.735913e-001
31328125	-1.176468e-001	8.759171e-001
31468750	-9.982405e-002	8.783776e-001
31609375	-8.191239e-002	8.796702e-001
31750000	-6.431022e-002	8.810938e-001
31890625	-4.632745e-002	8.825316e-001
32031250	-2.794771e-002	8.830282e-001
32171875	-1.029919e-002	8.830201e-001
32312500	8.021161e-003	8.834373e-001
32453125	2.541169e-002	8.829368e-001
32593750	4.320476e-002	8.815246e-001
32734375	6.177055e-002	8.806514e-001
32875000	7.990542e-002	8.794161e-001
33015625	9.773110e-002	8.772041e-001
33156250	1.153138e-001	8.751655e-001
33296875	1.331058e-001	8.726218e-001
33437500	1.505097e-001	8.696783e-001
33578125	1.687354e-001	8.662767e-001
33718750	1.860684e-001	8.629576e-001
33859375	2.032003e-001	8.586485e-001
34000000	2.210817e-001	8.542976e-001
34140625	2.386497e-001	8.498581e-001
34281250	2.556890e-001	8.449948e-001
34421875	2.726293e-001	8.392234e-001
34562500	2.896565e-001	8.338680e-001
34703125	3.067955e-001	8.270632e-001
34843750	3.232733e-001	8.207032e-001
34984375	3.396906e-001	8.140382e-001
35125000	3.562753e-001	8.071592e-001
35265625	3.729381e-001	7.998452e-001
35406250	3.890401e-001	7.917115e-001
35546875	4.050858e-001	7.839646e-001
35687500	4.209950e-001	7.757454e-001
35828125	4.364460e-001	7.670229e-001
35968750	4.517213e-001	7.581014e-001
36109375	4.671752e-001	7.487344e-001
36250000	4.824394e-001	7.390710e-001
36390625	4.973864e-001	7.290798e-001
36531250	5.128136e-001	7.193578e-001
36671875	5.267119e-001	7.079980e-001
36812500	5.411614e-001	6.973565e-001
36953125	5.549620e-001	6.863857e-001
37093750	5.690792e-001	6.753642e-001
37234375	5.827734e-001	6.634403e-001
37375000	5.958367e-001	6.514828e-001
37515625	6.088359e-001	6.390209e-001
37656250	6.219867e-001	6.268922e-001
37796875	6.348396e-001	6.137952e-001
37937500	6.468464e-001	6.015188e-001
38078125	6.592325e-001	5.881991e-001
38218750	6.714166e-001	5.747815e-001
38359375	6.827538e-001	5.606437e-001
38500000	6.940641e-001	5.467387e-001
38640625	7.050892e-001	5.329058e-001
38781250	7.162312e-001	5.184277e-001
38921875	7.262255e-001	5.042899e-001
39062500	7.363690e-001	4.892546e-001
39203125	7.466052e-001	4.741776e-001
39343750	7.561931e-001	4.584263e-001
39484375	7.651926e-001	4.435374e-001
39625000	7.742368e-001	4.279560e-001
39765625	7.829909e-001	4.122451e-001
39906250	7.917099e-001	3.961362e-001
40046875	7.993683e-001	3.801035e-001
40187500	8.074170e-001	3.641153e-001
40328125	8.142876e-001	3.473648e-001
40468750	8.215299e-001	3.308976e-001
40609375	8.282394e-001	3.142918e-001
40750000	8.345507e-001	2.973887e-001
40890625	8.404400e-001	2.802684e-001
41031250	8.463053e-001	2.633036e-001
41171875	8.514734e-001	2.461199e-001
41312500	8.566965e-001	2.286337e-001
41453125	8.609765e-001	2.109803e-001
41593750	8.658371e-001	1.938908e-001
41734375	8.693451e-001	1.762987e-001
41875000	8.729386e-001	1.584447e-001
42015625	8.762068e-001	1.404428e-001
42156250	8.791759e-001	1.226760e-001
42296875	8.812161e-001	1.049975e-001
42437500	8.835109e-001	8.693629e-002
42578125	8.852476e-001	6.868821e-002
42718750	8.865984e-001	5.097530e-002
42859375	8.878547e-001	3.280609e-002
43000000	8.883172e-001	1.471575e-002
43140625	8.884843e-001	-3.279316e-003
43281250	8.884986e-001	-2.136624e-002
43421875	8.881996e-001	-3.916457e-002
43562500	8.874321e-001	-5.746432e-002
43703125	8.862710e-001	-7.541532e-002
43843750	8.849978e-001	-9.361111e-002
43984375	8.828633e-001	-1.117672e-001
44125000	8.802218e-001	-1.299733e-001
44265625	8.778223e-001	-1.478993e-001
44406250	8.749749e-001	-1.651610e-001
44546875	8.714726e-001	-1.831945e-001
44687500	8.673770e-001	-2.010487e-001
44828125	8.639058e-001	-2.188184e-001
44968750	8.590685e-001	-2.362861e-001
45109375	8.544268e-001	-2.538652e-001
45250000	8.495009e-001	-2.714164e-001
45390625	8.436232e-001	-2.883746e-001
45531250	8.378111e-001	-3.059968e-001
45671875	8.311734e-001	-3.227493e-001
45812500	8.248484e-001	-3.398909e-001
45953125	8.179058e-001	-3.567783e-001
46093750	8.108140e-001	-3.733893e-001
46234375	8.028882e-001	-3.901649e-001
46375000	7.950854e-001	-4.064324e-001
46515625	7.865674e-001	-4.227240e-001
46656250	7.780530e-001	-4.384272e-001
46796875	7.685760e-001	-4.545445e-001
46937500	7.595609e-001	-4.700853e-001
47078125	7.503597e-001	-4.857602e-001
47218750	7.399208e-001	-5.008418e-001
47359375	7.296640e-001	-5.164349e-001
47500000	7.193097e-001	-5.309887e-001
47640625	7.085449e-001	-5.458824e-001
47781250	6.970151e-001	-5.602659e-001
47921875	6.858687e-001	-5.744683e-001
48062500	6.738151e-001	-5.884349e-001
48203125	6.619620e-001	-6.025242e-001
48343750	6.493979e-001	-6.161393e-001
48484375	6.365161e-001	-6.289118e-001
48625000	6.236316e-001	-6.421726e-001
48765625	6.108739e-001	-6.544082e-001
48906250	5.970053e-001	-6.675503e-001
49046875	5.832979e-001	-6.794588e-001
49187500	5.694183e-001	-6.913468e-001
49328125	5.552076e-001	-7.030624e-001
49468750	5.410898e-001	-7.143413e-001
49609375	5.260576e-001	-7.256648e-001
49750000	5.109775e-001	-7.362459e-001
49890625	4.958845e-001	-7.466981e-001
50031250	4.806690e-001	-7.565176e-001
50171875	4.653104e-001	-7.664059e-001
50312500	4.495085e-001	-7.760819e-001
50453125	4.333438e-001	-7.850732e-001
50593750	4.171987e-001	-7.937033e-001
50734375	4.006799e-001	-8.020300e-001
50875000	3.841295e-001	-8.108255e-001
51015625	3.676165e-001	-8.180763e-001
51156250	3.508038e-001	-8.254285e-001
51296875	3.337829e-001	-8.324416e-001
51437500	3.167622e-001	-8.389366e-001
51578125	2.995031e-001	-8.457876e-001
51718750	2.818640e-001	-8.513899e-001
51859375	2.646640e-001	-8.572924e-001
52000000	2.465424e-001	-8.628384e-001
52140625	2.290148e-001	-8.676277e-001
52281250	2.109481e-001	-8.720003e-001
52421875	1.927198e-001	-8.764528e-001
52562500	1.752368e-001	-8.793397e-001
52703125	1.571481e-001	-8.835351e-001
52843750	1.391613e-001	-8.867862e-001
52984375	1.204767e-001	-8.893536e-001
53125000	1.024922e-001	-8.917082e-001
53265625	8.428509e-002	-8.938145e-001
53406250	6.538969e-002	-8.948633e-001
53546875	4.683012e-002	-8.958083e-001
53687500	2.856634e-002	-8.966625e-001
53828125	1.015027e-002	-8.969268e-001
53968750	-8.070736e-003	-8.970634e-001
54109375	-2.667955e-002	-8.967330e-001
54250000	-4.455445e-002	-8.957191e-001
54390625	-6.335739e-002	-8.946489e-001
54531250	-8.228007e-002	-8.930768e-001
54671875	-1.000179e-001	-8.916674e-001
54812500	-1.184057e-001	-8.885191e-001
54953125	-1.367062e-001	-8.866354e-001
55093750	-1.546511e-001	-8.827207e-001
55234375	-1.733006e-001	-8.796113e-001
55375000	-1.913571e-001	-8.757288e-001
55515625	-2.092683e-001	-8.713158e-001
55656250	-2.265189e-001	-8.665795e-001
55796875	-2.448688e-001	-8.618448e-001
55937500	-2.622774e-001	-8.568050e-001
56078125	-2.798414e-001	-8.509963e-001
56218750	-2.971980e-001	-8.448367e-001
56359375	-3.147038e-001	-8.380256e-001
56500000	-3.318709e-001	-8.312977e-001
56640625	-3.487604e-001	-8.241352e-001
56781250	-3.654956e-001	-8.170301e-001
56921875	-3.821409e-001	-8.090205e-001
57062500	-3.983788e-001	-8.009405e-001
57203125	-4.151504e-001	-7.924095e-001
57343750	-4.309712e-001	-7.837230e-001
57484375	-4.474303e-001	-7.740824e-001
57625000	-4.628491e-001	-7.647318e-001
57765625	-4.783437e-001	-7.549048e-001
57906250	-4.935886e-001	-7.444748e-001
58046875	-5.090054e-001	-7.343027e-001
58187500	-5.234718e-001	-7.235880e-001
58328125	-5.384958e-001	-7.123627e-001
58468750	-5.530291e-001	-7.011191e-001
58609375	-5.668209e-001	-6.891607e-001
58750000	-5.807905e-001	-6.773501e-001
58890625	-5.942260e-001	-6.649997e-001
59031250	-6.076433e-001	-6.523194e-001
59171875	-6.209544e-001	-6.399243e-001
59312500	-6.340231e-001	-6.266007e-001
59453125	-6.466404e-001	-6.129437e-001
59593750	-6.588457e-001	-5.995110e-001
59734375	-6.705110e-001	-5.857427e-001
59875000	-6.826831e-001	-5.714753e-001
60015625	-6.940376e-001	-5.570635e-001
60156250	-7.048442e-001	-5.424615e-001
60296875	-7.157351e-001	-5.279393e-001
60437500	-7.263941e-001	-5.127054e-001
60578125	-7.364458e-001	-4.976637e-001
60718750	-7.463148e-001	-4.822012e-001
60859375	-7.556349e-001	-4.664147e-001
61000000	-7.647081e-001	-4.507788e-001
61140625	-7.735279e-001	-4.348757e-001
61281250	-7.822993e-001	-4.185786e-001
61421875	-7.900921e-001	-4.027902e-001
61562500	-7.982392e-001	-3.862914e-001
61703125	-8.058700e-001	-3.691055e-001
61843750	-8.129474e-001	-3.527248e-001
61984375	-8.195190e-001	-3.357950e-001
62125000	-8.259513e-001	-3.187598e-001
62265625	-8.320453e-001	-3.016042e-001
62406250	-8.376126e-001	-2.843704e-001
62546875	-8.429572e-001	-2.669820e-001
62687500	-8.478439e-001	-2.496778e-001
62828125	-8.525610e-001	-2.318603e-001
62968750	-8.568346e-001	-2.141653e-001
63109375	-8.605429e-001	-1.966567e-001
63250000	-8.642139e-001	-1.789734e-001
63390625	-8.676015e-001	-1.611278e-001
63531250	-8.699452e-001	-1.429044e-001
63671875	-8.725858e-001	-1.253440e-001
63812500	-8.745473e-001	-1.072394e-001
63953125	-8.763611e-001	-8.921676e-002
64093750	-8.774712e-001	-7.148239e-002
64234375	-8.784678e-001	-5.337298e-002
64375000	-8.787029e-001	-3.545017e-002
64515625	-8.790376e-001	-1.738879e-002
64656250	-8.786991e-001	2.667456e-004
64796875	-8.784689e-001	1.863774e-002
64937500	-8.774145e-001	3.655737e-002
65078125	-8.760206e-001	5.488599e-002
65218750	-8.741354e-001	7.231399e-002
65359375	-8.720551e-001	9.022782e-002
65500000	-8.695517e-001	1.077086e-001
65640625	-8.670817e-001	1.259224e-001
65781250	-8.640002e-001	1.434535e-001
65921875	-8.606947e-001	1.609180e-001
66062500	-8.567325e-001	1.783777e-001
66203125	-8.525872e-001	1.957325e-001
66343750	-8.477843e-001	2.130368e-001
66484375	-8.431242e-001	2.300080e-001
66625000	-8.380925e-001	2.473425e-001
66765625	-8.323897e-001	2.641837e-001
66906250	-8.262974e-001	2.815066e-001
67046875	-8.201467e-001	2.977255e-001
67187500	-8.134556e-001	3.142137e-001
67328125	-8.064570e-001	3.307586e-001
67468750	-7.994674e-001	3.469011e-001
67609375	-7.916326e-001	3.631981e-001
67750000	-7.839663e-001	3.789744e-001
67890625	-7.756793e-001	3.948195e-001
68031250	-7.672150e-001	4.102850e-001
68171875	-7.583714e-001	4.254796e-001
68312500	-7.493661e-001	4.408331e-001
68453125	-7.397753e-001	4.557226e-001
68593750	-7.298737e-001	4.704607e-001
68734375	-7.199411e-001	4.853030e-001
68875000	-7.098842e-001	4.995384e-001
69015625	-6.991509e-001	5.137149e-001
69156250	-6.881746e-001	5.276719e-001
69296875	-6.769997e-001	5.411735e-001
69437500	-6.655215e-001	5.541261e-001
69578125	-6.543784e-001	5.677745e-001
69718750	-6.422995e-001	5.808828e-001
69859375	-6.302023e-001	5.938636e-001
70000000	-6.176017e-001	6.059502e-001
70140625	-6.048174e-001	6.180731e-001
70281250	-5.920351e-001	6.302389e-001
70421875	-5.788221e-001	6.422360e-001
70562500	-5.656137e-001	6.537096e-001
70703125	-5.521335e-001	6.645007e-001
70843750	-5.380656e-001	6.751549e-001
70984375	-5.238638e-001	6.859747e-001
71125000	-5.100277e-001	6.961332e-001
71265625	-4.958727e-001	7.062515e-001
71406250	-4.808225e-001	7.159791e-001
71546875	-4.661802e-001	7.255072e-001
71687500	-4.513226e-001	7.343707e-001
71828125	-4.359896e-001	7.431580e-001
71968750	-4.207116e-001	7.513414e-001
72109375	-4.053503e-001	7.598013e-001
72250000	-3.897970e-001	7.672676e-001
72390625	-3.738545e-001	7.750268e-001
72531250	-3.582865e-001	7.822417e-001
72671875	-3.424561e-001	7.892827e-001
72812500	-3.262977e-001	7.959904e-001
72953125	-3.094693e-001	8.020421e-001
73093750	-2.928582e-001	8.080329e-001
73234375	-2.765252e-001	8.136125e-001
73375000	-2.604376e-001	8.188059e-001
73515625	-2.435340e-001	8.233895e-001
73656250	-2.265389e-001	8.281847e-001
73796875	-2.096474e-001	8.325605e-001
73937500	-1.925424e-001	8.360547e-001
74078125	-1.759645e-001	8.400167e-001
74218750	-1.583052e-001	8.430110e-001
74359375	-1.415376e-001	8.457950e-001
74500000	-1.247405e-001	8.484218e-001
74640625	-1.068937e-001	8.504914e-001
74781250	-9.016791e-002	8.523564e-001
74921875	-7.264049e-002	8.545414e-001
75062500	-5.519812e-002	8.554458e-001
75203125	-3.797447e-002	8.559459e-001
75343750	-2.046708e-002	8.566204e-001
75484375	-3.479739e-003	8.568085e-001
75625000	1.419945e-002	8.565723e-001
75765625	3.161070e-002	8.559963e-001
75906250	4.834938e-002	8.550403e-001
76046875	6.616170e-002	8.539381e-001
76187500	8.327900e-002	8.523448e-001
76328125	1.004865e-001	8.500353e-001
76468750	1.180384e-001	8.477453e-001
76609375	1.348839e-001	8.449477e-001
76750000	1.517461e-001	8.422912e-001
76890625	1.686071e-001	8.391327e-001
77031250	1.857243e-001	8.354420e-001
77171875	2.025928e-001	8.314647e-001
77312500	2.191613e-001	8.271323e-001
77453125	2.364017e-001	8.228361e-001
77593750	2.526060e-001	8.172108e-001
77734375	2.689298e-001	8.116188e-001
77875000	2.855007e-001	8.065036e-001
78015625	3.019130e-001	8.007990e-001
78156250	3.180588e-001	7.944624e-001
78296875	3.344685e-001	7.879650e-001
78437500	3.497963e-001	7.804721e-001
78578125	3.658152e-001	7.738842e-001
78718750	3.812691e-001	7.658171e-001
78859375	3.964809e-001	7.584209e-001
79000000	4.121475e-001	7.501692e-001
79140625	4.270173e-001	7.415813e-001
79281250	4.418526e-001	7.329970e-001
79421875	4.568242e-001	7.239014e-001
79562500	4.712628e-001	7.147390e-001
79703125	4.857278e-001	7.051376e-001
79843750	4.999597e-001	6.949305e-001
79984375	5.138718e-001	6.849141e-001
80125000	5.276818e-001	6.745940e-001
80265625	5.414710e-001	6.636784e-001
80406250	5.546285e-001	6.524411e-001
80546875	5.683144e-001	6.411270e-001
80687500	5.808842e-001	6.294937e-001
80828125	5.936453e-001	6.178028e-001
80968750	6.060038e-001	6.057514e-001
81109375	6.183436e-001	5.937438e-001
81250000	6.299644e-001	5.806835e-001
81390625	6.422468e-001	5.680489e-001
81531250	6.536744e-001	5.552444e-001
81671875	6.649048e-001	5.419490e-001
81812500	6.758664e-001	5.283813e-001
81953125	6.863117e-001	5.145496e-001
82093750	6.969879e-001	5.007265e-001
82234375	7.067397e-001	4.866540e-001
82375000	7.169267e-001	4.724359e-001
82515625	7.265739e-001	4.574123e-001
82656250	7.352284e-001	4.432808e-001
82796875	7.445925e-001	4.281978e-001
82937500	7.531067e-001	4.130468e-001
83078125	7.617289e-001	3.979313e-001
83218750	7.699819e-001	3.821013e-001
83359375	7.776122e-001	3.667543e-001
83500000	7.851657e-001	3.507804e-001
83640625	7.921864e-001	3.348654e-001
83781250	7.993163e-001	3.186744e-001
83921875	8.057890e-001	3.026140e-001
84062500	8.121254e-001	2.863169e-001
84203125	8.178847e-001	2.695842e-001
84343750	8.234973e-001	2.527827e-001
84484375	8.287195e-001	2.361769e-001
84625000	8.334270e-001	2.195038e-001
84765625	8.378935e-001	2.025700e-001
84906250	8.424090e-001	1.855604e-001
85046875	8.458768e-001	1.683505e-001
85187500	8.495534e-001	1.511746e-001
85328125	8.530336e-001	1.338928e-001
85468750	8.552819e-001	1.166548e-001
85609375	8.574944e-001	9.883613e-002
85750000	8.602657e-001	8.133182e-002
85890625	8.617182e-001	6.419781e-002
86031250	8.630369e-001	4.624480e-002
86171875	8.641309e-001	2.883490e-002
86312500	8.650957e-001	1.118595e-002
86453125	8.650952e-001	-6.137809e-003
86593750	8.652898e-001	-2.407739e-002
86734375	8.651022e-001	-4.167429e-002
86875000	8.641027e-001	-5.919292e-002
87015625	8.626836e-001	-7.695012e-002
87156250	8.612486e-001	-9.443424e-002
87296875	8.596908e-001	-1.126351e-001
87437500	8.575491e-001	-1.296890e-001
87578125	8.550081e-001	-1.475700e-001
87718750	8.520155e-001	-1.647694e-001
87859375	8.487642e-001	-1.824970e-001
88000000	8.451417e-001	-1.999818e-001
88140625	8.410965e-001	-2.170208e-001
88281250	8.367081e-001	-2.342439e-001
88421875	8.315732e-001	-2.516759e-001
88562500	8.269551e-001	-2.684403e-001
88703125	8.216098e-001	-2.852862e-001
88843750	8.153663e-001	-3.020682e-001
88984375	8.097746e-001	-3.190229e-001
89125000	8.032420e-001	-3.354804e-001
89265625	7.966496e-001	-3.522183e-001
89406250	7.892460e-001	-3.684589e-001
89546875	7.813611e-001	-3.848412e-001
89687500	7.739523e-001	-4.006945e-001
89828125	7.655683e-001	-4.168664e-001
89968750	7.572550e-001	-4.324349e-001
90109375	7.487879e-001	-4.482525e-001
90250000	7.399040e-001	-4.634260e-001
90390625	7.302268e-001	-4.788409e-001
90531250	7.202169e-001	-4.940061e-001
90671875	7.104915e-001	-5.088045e-001
90812500	6.999456e-001	-5.230038e-001
90953125	6.889260e-001	-5.377939e-001
91093750	6.781683e-001	-5.524075e-001
91234375	6.666936e-001	-5.660109e-001
91375000	6.551846e-001	-5.798195e-001
91515625	6.435105e-001	-5.934999e-001
91656250	6.310867e-001	-6.068004e-001
91796875	6.184299e-001	-6.199575e-001
91937500	6.059377e-001	-6.321649e-001
92078125	5.929502e-001	-6.450514e-001
92218750	5.797819e-001	-6.568837e-001
92359375	5.663418e-001	-6.690043e-001
92500000	5.522932e-001	-6.807902e-001
92640625	5.387849e-001	-6.924368e-001
92781250	5.243502e-001	-7.031061e-001
92921875	5.096520e-001	-7.143606e-001
93062500	4.945922e-001	-7.249076e-001
93203125	4.797740e-001	-7.349750e-001
93343750	4.646545e-001	-7.446371e-001
93484375	4.495701e-001	-7.543697e-001
93625000	4.340462e-001	-7.638985e-001
93765625	4.182271e-001	-7.726690e-001
93906250	4.024346e-001	-7.809035e-001
94046875	3.860299e-001	-7.895586e-001
94187500	3.698572e-001	-7.971972e-001
94328125	3.532524e-001	-8.056190e-001
94468750	3.368273e-001	-8.122024e-001
94609375	3.197752e-001	-8.192259e-001
94750000	3.028233e-001	-8.258662e-001
94890625	2.859877e-001	-8.319877e-001
95031250	2.683856e-001	-8.377718e-001
95171875	2.509940e-001	-8.433667e-001
95312500	2.340576e-001	-8.485091e-001
95453125	2.163098e-001	-8.532816e-001
95593750	1.985835e-001	-8.572802e-001
95734375	1.805996e-001	-8.609556e-001
95875000	1.631475e-001	-8.653246e-001
96015625	1.450251e-001	-8.684775e-001
