!Agilent Technologies,E5071C,MY46214392,A.11.36
!Date: Sun Apr 19 14:41:42 2026
!Data & Calibration Information:
!Freq	S11:NONE(--)
!PortZ  Port1:50+j0
!Above PortZ is port z conversion or system Z0 setting when saving the data.
!When reading, reference impedance value at option line is always used.
# Hz S RI R 50
300000	3.237906e-001	-5.454747e-003
612313	3.254941e-001	-2.293217e-002
924625	3.249410e-001	-3.841982e-002
1236938	3.229406e-001	-5.379754e-002
1549250	3.205278e-001	-6.850472e-002
1861563	3.168413e-001	-8.302101e-002
2173875	3.129105e-001	-9.724927e-002
2486188	3.082802e-001	-1.111361e-001
2798500	3.028958e-001	-1.247299e-001
3110813	2.969475e-001	-1.380519e-001
3423125	2.904697e-001	-1.510857e-001
3735438	2.834725e-001	-1.636806e-001
4047750	2.757323e-001	-1.762141e-001
4360063	2.675017e-001	-1.882158e-001
4672375	2.587641e-001	-1.998112e-001
4984688	2.494906e-001	-2.110375e-001
5297000	2.396735e-001	-2.218887e-001
5609313	2.294552e-001	-2.321818e-001
5921625	2.187161e-001	-2.420084e-001
6233938	2.075474e-001	-2.514129e-001
6546250	1.961071e-001	-2.601711e-001
6858563	1.840360e-001	-2.684859e-001
7170875	1.718050e-001	-2.759496e-001
7483188	1.591751e-001	-2.835419e-001
7795500	1.461603e-001	-2.900373e-001
8107813	1.328981e-001	-2.959878e-001
8420125	1.193877e-001	-3.013869e-001
8732438	1.056528e-001	-3.061357e-001
9044750	9.170100e-002	-3.102603e-001
9357063	7.759820e-002	-3.137488e-001
9669375	6.328824e-002	-3.165672e-001
9981688	4.888549e-002	-3.187668e-001
10294000	3.445628e-002	-3.203134e-001
10606313	2.000143e-002	-3.211875e-001
10918625	5.451456e-003	-3.213473e-001
11230938	-9.071898e-003	-3.209068e-001
11543250	-2.353151e-002	-3.197991e-001
11855563	-3.796826e-002	-3.179974e-001
12167875	-5.227737e-002	-3.155575e-001
12480188	-6.641151e-002	-3.124986e-001
12792500	-8.044532e-002	-3.087722e-001
13104813	-9.438967e-002	-3.043512e-001
13417125	-1.079945e-001	-2.993288e-001
13729438	-1.213040e-001	-2.937663e-001
14041750	-1.343557e-001	-2.876260e-001
14354063	-1.471696e-001	-2.808035e-001
14666375	-1.596045e-001	-2.734619e-001
14978688	-1.717301e-001	-2.655416e-001
15291000	-1.834503e-001	-2.570559e-001
15603313	-1.947269e-001	-2.481324e-001
15915625	-2.056740e-001	-2.386536e-001
16227938	-2.161508e-001	-2.286823e-001
16540250	-2.260953e-001	-2.182103e-001
16852563	-2.355796e-001	-2.073808e-001
17164875	-2.445912e-001	-1.961208e-001
17477188	-2.530140e-001	-1.844514e-001
17789500	-2.609308e-001	-1.723838e-001
18101813	-2.682758e-001	-1.600135e-001
18414125	-2.750523e-001	-1.473318e-001
18726438	-2.812377e-001	-1.343781e-001
19038750	-2.868615e-001	-1.210992e-001
19351063	-2.918231e-001	-1.076239e-001
19663375	-2.961741e-001	-9.394380e-002
19975688	-2.999098e-001	-8.009307e-002
20288000	-3.029619e-001	-6.607151e-002
20600313	-3.054242e-001	-5.197419e-002
20912625	-3.072240e-001	-3.772631e-002
21224938	-3.083634e-001	-2.346932e-002
21537250	-3.088587e-001	-9.167812e-003
21849563	-3.087123e-001	5.150016e-003
22161875	-3.078868e-001	1.942830e-002
22474188	-3.064564e-001	3.363976e-002
22786500	-3.043587e-001	4.776246e-002
23098813	-3.016218e-001	6.175985e-002
23411125	-2.982599e-001	7.561284e-002
23723438	-2.942462e-001	8.930543e-002
24035750	-2.896493e-001	1.027732e-001
24348063	-2.844230e-001	1.160053e-001
24660375	-2.786426e-001	1.290081e-001
24972688	-2.722568e-001	1.417032e-001
25285000	-2.652853e-001	1.541385e-001
25597313	-2.578189e-001	1.662096e-001
25909625	-2.497700e-001	1.779186e-001
26221938	-2.412071e-001	1.892386e-001
26534250	-2.321382e-001	2.001484e-001
26846563	-2.226162e-001	2.106469e-001
27158875	-2.126101e-001	2.207017e-001
27471188	-2.021862e-001	2.302625e-001
27783500	-1.913467e-001	2.393465e-001
28095813	-1.800695e-001	2.479105e-001
28408125	-1.684680e-001	2.559508e-001
28720438	-1.565102e-001	2.634693e-001
29032750	-1.442335e-001	2.703826e-001
29345063	-1.316291e-001	2.768046e-001
29657375	-1.187717e-001	2.826183e-001
29969688	-1.056547e-001	2.878670e-001
30282000	-9.234406e-002	2.924913e-001
30594313	-7.883863e-002	2.964783e-001
30906625	-6.516823e-002	2.998850e-001
31218938	-5.134175e-002	3.026895e-001
31531250	-3.742819e-002	3.048358e-001
31843563	-2.340627e-002	3.063834e-001
32155875	-9.357285e-003	3.072520e-001
32468188	4.711539e-003	3.074866e-001
32780500	1.878082e-002	3.070751e-001
33092813	3.276914e-002	3.060553e-001
33405125	4.672986e-002	3.043554e-001
33717438	6.057728e-002	3.020700e-001
34029750	7.429185e-002	2.991432e-001
34342063	8.790694e-002	2.956351e-001
34654375	1.013197e-001	2.914866e-001
34966688	1.145379e-001	2.867504e-001
35279000	1.275128e-001	2.814110e-001
35591313	1.402248e-001	2.754860e-001
35903625	1.527125e-001	2.690206e-001
36215938	1.648425e-001	2.619686e-001
36528250	1.766321e-001	2.543913e-001
36840563	1.880796e-001	2.462888e-001
37152875	1.991398e-001	2.376782e-001
37465188	2.098167e-001	2.285772e-001
37777500	2.200257e-001	2.190031e-001
38089813	2.298109e-001	2.089762e-001
38402125	2.391459e-001	1.985167e-001
38714438	2.479798e-001	1.876504e-001
39026750	2.563262e-001	1.763985e-001
39339063	2.641414e-001	1.648105e-001
39651375	2.714234e-001	1.528491e-001
39963688	2.781379e-001	1.405761e-001
40276000	2.843044e-001	1.280320e-001
40588313	2.899031e-001	1.152154e-001
40900625	2.949247e-001	1.021588e-001
41212938	2.993372e-001	8.887430e-002
41525250	3.031569e-001	7.540873e-002
41837563	3.063417e-001	6.179238e-002
42149875	3.089307e-001	4.805578e-002
42462188	3.108903e-001	3.420327e-002
42774500	3.122129e-001	2.029122e-002
43086813	3.128995e-001	6.318250e-003
43399125	3.129719e-001	-7.660210e-003
43711438	3.124033e-001	-2.161763e-002
44023750	3.112098e-001	-3.557043e-002
44336063	3.093735e-001	-4.943507e-002
44648375	3.069096e-001	-6.320463e-002
44960688	3.038253e-001	-7.687651e-002
45273000	3.001503e-001	-9.037738e-002
45585313	2.958466e-001	-1.036739e-001
45897625	2.909594e-001	-1.167847e-001
46209938	2.854765e-001	-1.296535e-001
46522250	2.794461e-001	-1.422806e-001
46834563	2.728252e-001	-1.546298e-001
47146875	2.656562e-001	-1.666434e-001
47459188	2.579494e-001	-1.783155e-001
47771500	2.497152e-001	-1.896438e-001
48083813	2.410081e-001	-2.005691e-001
48396125	2.317602e-001	-2.111053e-001
48708438	2.220818e-001	-2.212057e-001
49020750	2.119447e-001	-2.308611e-001
49333063	2.013715e-001	-2.400463e-001
49645375	1.903753e-001	-2.487294e-001
49957688	1.790157e-001	-2.569362e-001
50270000	1.672889e-001	-2.645655e-001
50582313	1.552422e-001	-2.717240e-001
50894625	1.428747e-001	-2.782827e-001
51206938	1.302490e-001	-2.842858e-001
51519250	1.173294e-001	-2.897069e-001
51831563	1.041985e-001	-2.945599e-001
52143875	9.086964e-002	-2.988076e-001
52456188	7.734641e-002	-3.024422e-001
52768500	6.368479e-002	-3.054406e-001
53080813	4.989967e-002	-3.078395e-001
53393125	3.602622e-002	-3.096286e-001
53705438	2.206670e-002	-3.107594e-001
54017750	8.078176e-003	-3.112636e-001
54330063	-5.887002e-003	-3.111441e-001
54642375	-1.986858e-002	-3.103770e-001
54954688	-3.377939e-002	-3.089674e-001
55267000	-4.762271e-002	-3.069547e-001
55579313	-6.132375e-002	-3.042960e-001
55891625	-7.493617e-002	-3.010346e-001
56203938	-8.834705e-002	-2.971594e-001
56516250	-1.015972e-001	-2.926794e-001
56828563	-1.146074e-001	-2.875982e-001
57140875	-1.273915e-001	-2.819341e-001
57453188	-1.398763e-001	-2.756871e-001
57765500	-1.521084e-001	-2.689142e-001
58077813	-1.639904e-001	-2.615627e-001
58390125	-1.755095e-001	-2.536919e-001
58702438	-1.866808e-001	-2.453105e-001
59014750	-1.974557e-001	-2.364527e-001
59327063	-2.078052e-001	-2.270950e-001
59639375	-2.177292e-001	-2.172791e-001
59951688	-2.271839e-001	-2.070156e-001
60264000	-2.361793e-001	-1.963590e-001
60576313	-2.446642e-001	-1.852955e-001
60888625	-2.526504e-001	-1.738671e-001
61200938	-2.600936e-001	-1.620811e-001
61513250	-2.670130e-001	-1.499687e-001
61825563	-2.733610e-001	-1.375716e-001
62137875	-2.791352e-001	-1.249066e-001
62450188	-2.843643e-001	-1.119767e-001
62762500	-2.889434e-001	-9.882803e-002
63074813	-2.929485e-001	-8.550674e-002
63387125	-2.963381e-001	-7.202146e-002
63699438	-2.991347e-001	-5.838181e-002
64011750	-3.013036e-001	-4.465009e-002
64324063	-3.028335e-001	-3.081097e-002
64636375	-3.037561e-001	-1.693662e-002
64948688	-3.040081e-001	-3.056247e-003
65261000	-3.036929e-001	1.085075e-002
65573313	-3.027118e-001	2.474199e-002
65885625	-3.010924e-001	3.852835e-002
66197938	-2.988869e-001	5.222630e-002
66510250	-2.960416e-001	6.581419e-002
66822563	-2.925823e-001	7.927658e-002
67134875	-2.885245e-001	9.252407e-002
67447188	-2.838780e-001	1.056106e-001
67759500	-2.786406e-001	1.184435e-001
68071813	-2.728461e-001	1.309889e-001
68384125	-2.664584e-001	1.433076e-001
68696438	-2.595407e-001	1.553146e-001
69008750	-2.520960e-001	1.669926e-001
69321063	-2.441061e-001	1.783129e-001
69633375	-2.356304e-001	1.892634e-001
69945688	-2.266656e-001	1.997990e-001
70258000	-2.172478e-001	2.099630e-001
70570313	-2.073932e-001	2.196359e-001
70882625	-1.970877e-001	2.288676e-001
71194938	-1.863647e-001	2.376277e-001
71507250	-1.752654e-001	2.458852e-001
71819563	-1.638403e-001	2.536182e-001
72131875	-1.520534e-001	2.608451e-001
72444188	-1.399616e-001	2.675241e-001
72756500	-1.275897e-001	2.736370e-001
73068813	-1.149890e-001	2.791892e-001
73381125	-1.020973e-001	2.841657e-001
73693438	-8.899519e-002	2.885446e-001
74005750	-7.574328e-002	2.923135e-001
74318063	-6.233579e-002	2.955354e-001
74630375	-4.879040e-002	2.980981e-001
74942688	-3.514585e-002	3.000511e-001
75255000	-2.144125e-002	3.013903e-001
75567313	-7.691563e-003	3.021089e-001
75879625	6.084224e-003	3.022148e-001
76191938	1.984316e-002	3.016836e-001
76504250	3.356299e-002	3.005319e-001
76816563	4.721721e-002	2.987392e-001
77128875	6.077592e-002	2.963716e-001
77441188	7.419537e-002	2.933844e-001
77753500	8.748000e-002	2.897873e-001
78065813	1.005836e-001	2.855924e-001
78378125	1.134609e-001	2.807901e-001
78690438	1.261240e-001	2.754482e-001
79002750	1.385328e-001	2.695406e-001
79315063	1.506549e-001	2.630633e-001
79627375	1.624674e-001	2.560659e-001
79939688	1.739672e-001	2.485049e-001
80252000	1.850777e-001	2.404548e-001
80564313	1.958471e-001	2.319032e-001
80876625	2.062231e-001	2.228823e-001
81188938	2.161490e-001	2.133871e-001
81501250	2.256522e-001	2.035004e-001
81813563	2.347153e-001	1.931441e-001
82125875	2.432619e-001	1.824180e-001
82438188	2.513257e-001	1.712962e-001
82750500	2.588830e-001	1.598540e-001
83062813	2.659005e-001	1.480440e-001
83375125	2.724039e-001	1.359601e-001
83687438	2.783379e-001	1.235736e-001
83999750	2.837226e-001	1.109355e-001
84312063	2.885195e-001	9.806938e-002
84624375	2.927462e-001	8.500932e-002
84936688	2.963374e-001	7.176003e-002
85249000	2.993417e-001	5.837247e-002
85561313	3.017491e-001	4.484770e-002
85873625	3.035374e-001	3.122359e-002
86185938	3.047071e-001	1.754400e-002
86498250	3.052481e-001	3.821592e-003
86810563	3.051959e-001	-9.915290e-003
87122875	3.045022e-001	-2.363379e-002
87435188	3.031719e-001	-3.730329e-002
87747500	3.012470e-001	-5.090033e-002
88059813	2.986882e-001	-6.439654e-002
88372125	2.955554e-001	-7.778652e-002
88684438	2.917811e-001	-9.101015e-002
88996750	2.874159e-001	-1.040252e-001
89309063	2.825191e-001	-1.168774e-001
89621375	2.769679e-001	-1.294579e-001
89933688	2.709064e-001	-1.418000e-001
90246000	2.642570e-001	-1.538358e-001
90558313	2.570691e-001	-1.655675e-001
90870625	2.493621e-001	-1.769360e-001
91182938	2.411401e-001	-1.879817e-001
91495250	2.324582e-001	-1.986557e-001
91807563	2.232577e-001	-2.088930e-001
92119875	2.136057e-001	-2.187205e-001
92432188	2.035340e-001	-2.280713e-001
92744500	1.930487e-001	-2.369844e-001
93056813	1.821413e-001	-2.453935e-001
93369125	1.708706e-001	-2.533240e-001
93681438	1.592583e-001	-2.607186e-001
93993750	1.473404e-001	-2.675740e-001
94306063	1.351102e-001	-2.738679e-001
94618375	1.225905e-001	-2.796273e-001
94930688	1.098525e-001	-2.847862e-001
95243000	9.688360e-002	-2.893779e-001
95555313	8.371187e-002	-2.933803e-001
95867625	7.033986e-002	-2.967744e-001
96179938	5.685921e-002	-2.995435e-001
96492250	4.328242e-002	-3.017346e-001
96804563	2.959159e-002	-3.033087e-001
97116875	1.588973e-002	-3.042248e-001
97429188	2.103034e-003	-3.045312e-001
97741500	-1.163102e-002	-3.042270e-001
98053813	-2.536599e-002	-3.033153e-001
98366125	-3.902575e-002	-3.017443e-001
98678438	-5.262446e-002	-2.995952e-001
98990750	-6.608891e-002	-2.968219e-001
99303063	-7.941004e-002	-2.934183e-001
99615375	-9.258848e-002	-2.894298e-001
99927688	-1.055346e-001	-2.848644e-001
100240000	-1.182966e-001	-2.797004e-001
100552313	-1.307818e-001	-2.739786e-001
100864625	-1.430112e-001	-2.676782e-001
101176938	-1.549364e-001	-2.608488e-001
101489250	-1.665445e-001	-2.534752e-001
101801563	-1.778073e-001	-2.455930e-001
102113875	-1.886909e-001	-2.371758e-001
102426188	-1.991794e-001	-2.283108e-001
102738500	-2.092490e-001	-2.189791e-001
103050813	-2.188936e-001	-2.091967e-001
103363125	-2.280832e-001	-1.989911e-001
103675438	-2.368113e-001	-1.883620e-001
103987750	-2.450424e-001	-1.773650e-001
104300063	-2.527724e-001	-1.659932e-001
104612375	-2.599616e-001	-1.543060e-001
104924688	-2.666237e-001	-1.423057e-001
105237000	-2.727365e-001	-1.300440e-001
105549313	-2.782895e-001	-1.174755e-001
105861625	-2.832382e-001	-1.046785e-001
106173938	-2.876542e-001	-9.167395e-002
106486250	-2.914458e-001	-7.848118e-002
106798563	-2.946509e-001	-6.513929e-002
107110875	-2.972308e-001	-5.165724e-002
107423188	-2.992223e-001	-3.809460e-002
107735500	-3.005615e-001	-2.444234e-002
108047813	-3.013273e-001	-1.074788e-002
108360125	-3.014480e-001	2.961595e-003
108672438	-3.009320e-001	1.667934e-002
108984750	-2.998188e-001	3.032694e-002
109297063	-2.981128e-001	4.392569e-002
109609375	-2.957572e-001	5.741442e-002
109921688	-2.928121e-001	7.080254e-002
110234000	-2.892621e-001	8.403972e-002
110546313	-2.851137e-001	9.711167e-002
110858625	-2.803766e-001	1.099632e-001
111170938	-2.750831e-001	1.225794e-001
111483250	-2.692212e-001	1.349355e-001
111795563	-2.628037e-001	1.470281e-001
112107875	-2.558441e-001	1.588243e-001
112420188	-2.483775e-001	1.702713e-001
112732500	-2.403957e-001	1.814060e-001
113044813	-2.319263e-001	1.921355e-001
113357125	-2.229735e-001	2.024625e-001
113669438	-2.135731e-001	2.123755e-001
113981750	-2.037553e-001	2.218532e-001
114294063	-1.934978e-001	2.309058e-001
114606375	-1.828586e-001	2.394817e-001
114918688	-1.718423e-001	2.475481e-001
115231000	-1.604647e-001	2.551007e-001
115543313	-1.487640e-001	2.621279e-001
115855625	-1.367750e-001	2.686440e-001
116167938	-1.244763e-001	2.746033e-001
116480250	-1.119632e-001	2.800033e-001
116792563	-9.920208e-002	2.848196e-001
117104875	-8.623814e-002	2.890783e-001
117417188	-7.307618e-002	2.926998e-001
117729500	-5.980138e-002	2.957994e-001
118041813	-4.639804e-002	2.982814e-001
118354125	-3.286830e-002	3.001361e-001
118666438	-1.932580e-002	3.013857e-001
118978750	-5.687949e-003	3.020001e-001
119291063	7.936882e-003	3.020409e-001
119603375	2.156208e-002	3.014502e-001
119915688	3.511670e-002	3.002311e-001
120228000	4.862199e-002	2.984212e-001
120540313	6.200759e-002	2.959988e-001
120852625	7.528078e-002	2.929583e-001
121164938	8.843372e-002	2.893648e-001
121477250	1.013692e-001	2.851497e-001
121789563	1.141128e-001	2.803508e-001
122101875	1.266121e-001	2.750085e-001
122414188	1.388653e-001	2.691111e-001
122726500	1.508658e-001	2.626530e-001
123038813	1.625202e-001	2.556645e-001
123351125	1.738569e-001	2.481715e-001
123663438	1.848783e-001	2.401784e-001
123975750	1.955051e-001	2.316797e-001
124288063	2.057290e-001	2.227182e-001
124600375	2.155506e-001	2.133039e-001
124912688	2.249467e-001	2.034675e-001
125225000	2.338791e-001	1.932341e-001
125537313	2.423293e-001	1.826033e-001
125849625	2.502853e-001	1.715993e-001
126161938	2.577711e-001	1.602451e-001
126474250	2.647132e-001	1.485594e-001
126786563	2.711167e-001	1.365781e-001
127098875	2.769923e-001	1.243268e-001
127411188	2.822939e-001	1.117954e-001
127723500	2.870473e-001	9.908654e-002
128035813	2.912272e-001	8.615307e-002
128348125	2.947899e-001	7.305228e-002
128660438	2.977760e-001	5.979769e-002
128972750	3.001560e-001	4.642744e-002
129285063	3.019188e-001	3.295656e-002
129597375	3.031001e-001	1.941019e-002
129909688	3.036511e-001	5.845768e-003
130222000	3.036036e-001	-7.725081e-003
130534313	3.029420e-001	-2.129877e-002
130846625	3.016557e-001	-3.482890e-002
131158938	2.997752e-001	-4.826978e-002
131471250	2.972920e-001	-6.160081e-002
131783563	2.942118e-001	-7.481119e-002
132095875	2.905214e-001	-8.789796e-002
132408188	2.862525e-001	-1.007694e-001
132720500	2.814150e-001	-1.134649e-001
133032813	2.760004e-001	-1.258935e-001
133345125	2.700257e-001	-1.380749e-001
133657438	2.635158e-001	-1.499992e-001
133969750	2.564758e-001	-1.615971e-001
134282063	2.488996e-001	-1.728705e-001
134594375	2.408153e-001	-1.837933e-001
134906688	2.322591e-001	-1.943274e-001
135219000	2.232541e-001	-2.044691e-001
135531313	2.137717e-001	-2.142139e-001
135843625	2.038683e-001	-2.234947e-001
136155938	1.935770e-001	-2.323145e-001
136468250	1.828451e-001	-2.406805e-001
136780563	1.717957e-001	-2.485464e-001
137092875	1.603794e-001	-2.558843e-001
137405188	1.486594e-001	-2.627298e-001
137717500	1.366133e-001	-2.690033e-001
138029813	1.243303e-001	-2.747603e-001
138342125	1.117945e-001	-2.799390e-001
138654438	9.904399e-002	-2.845247e-001
138966750	8.608731e-002	-2.885539e-001
139279063	7.295782e-002	-2.919901e-001
139591375	5.968893e-002	-2.948064e-001
139903688	4.630478e-002	-2.970565e-001
140216000	3.284794e-002	-2.986521e-001
140528313	1.931626e-002	-2.996753e-001
140840625	5.756921e-003	-3.000613e-001
141152938	-7.802080e-003	-2.998372e-001
141465250	-2.134350e-002	-2.990026e-001
141777563	-3.480971e-002	-2.975664e-001
142089875	-4.821880e-002	-2.955187e-001
142402188	-6.152735e-002	-2.928624e-001
142714500	-7.468026e-002	-2.895777e-001
143026813	-8.766718e-002	-2.857168e-001
143339125	-1.004552e-001	-2.812767e-001
143651438	-1.130373e-001	-2.762757e-001
143963750	-1.253802e-001	-2.707186e-001
144276063	-1.374536e-001	-2.645675e-001
144588375	-1.492584e-001	-2.578868e-001
144900688	-1.607158e-001	-2.506850e-001
145213000	-1.718605e-001	-2.429846e-001
145525313	-1.826320e-001	-2.347838e-001
145837625	-1.930327e-001	-2.260930e-001
146149938	-2.030077e-001	-2.169489e-001
146462250	-2.125560e-001	-2.073814e-001
146774563	-2.216591e-001	-1.973660e-001
147086875	-2.302908e-001	-1.869536e-001
147399188	-2.384486e-001	-1.761651e-001
147711500	-2.461090e-001	-1.650289e-001
148023813	-2.532443e-001	-1.535584e-001
148336125	-2.598587e-001	-1.417707e-001
148648438	-2.659211e-001	-1.297205e-001
148960750	-2.714243e-001	-1.174100e-001
149273063	-2.763788e-001	-1.048320e-001
149585375	-2.807383e-001	-9.206823e-002
149897688	-2.845300e-001	-7.911598e-002
150210000	-2.877193e-001	-6.601570e-002
150522313	-2.903360e-001	-5.276508e-002
150834625	-2.923218e-001	-3.942501e-002
151146938	-2.937165e-001	-2.600112e-002
151459250	-2.944913e-001	-1.255016e-002
151771563	-2.946610e-001	9.442398e-004
152083875	-2.942103e-001	1.441321e-002
152396188	-2.931776e-001	2.782689e-002
152708500	-2.915042e-001	4.118278e-002
153020813	-2.892472e-001	5.446872e-002
153333125	-2.864036e-001	6.762257e-002
153645438	-2.829329e-001	8.059624e-002
153957750	-2.788973e-001	9.344589e-002
154270063	-2.742838e-001	1.060977e-001
154582375	-2.691154e-001	1.185123e-001
154894688	-2.633675e-001	1.306514e-001
155207000	-2.570998e-001	1.425613e-001
155519313	-2.502859e-001	1.541604e-001
155831625	-2.429871e-001	1.654192e-001
