!Agilent Technologies,E5071C,MY46214392,A.11.36
!Date: Thu Apr 30 16:36:45 2026
!Data & Calibration Information:
!Freq	S11:SOLT1(OFF)	S21:NONE(--)	S12:NONE(--)	S22:NONE(--)
!PortZ  Port1:50+j0    Port2:50+j0
!Above PortZ is port z conversion or system Z0 setting when saving the data.
!When reading, reference impedance value at option line is always used.
# Hz S RI R 50
25000000	9.554680e-001	-1.427187e-001	-1.017295e+000	-1.401089e+000	8.857368e-005	6.520280e-004	-8.826388e-002	7.171971e-002
25140625	9.550770e-001	-1.439942e-001	-1.028412e+000	-1.403283e+000	-1.009393e-004	7.676563e-004	-8.807862e-002	7.216300e-002
25281250	9.550248e-001	-1.438879e-001	-1.038758e+000	-1.406683e+000	-1.513297e-004	1.127186e-003	-8.751231e-002	7.272845e-002
25421875	9.549217e-001	-1.448012e-001	-1.048407e+000	-1.409151e+000	6.276738e-004	9.391649e-004	-8.676185e-002	7.266298e-002
25562500	9.541641e-001	-1.452027e-001	-1.059266e+000	-1.410994e+000	7.916511e-004	4.497009e-004	-8.636464e-002	7.361937e-002
25703125	9.542132e-001	-1.459647e-001	-1.070006e+000	-1.414298e+000	2.323064e-004	7.556619e-004	-8.603142e-002	7.362441e-002
25843750	9.543630e-001	-1.466657e-001	-1.080633e+000	-1.416039e+000	-8.587987e-005	7.375395e-004	-8.547876e-002	7.428035e-002
25984375	9.542652e-001	-1.470370e-001	-1.091408e+000	-1.420049e+000	6.373760e-005	6.589230e-004	-8.501284e-002	7.465722e-002
26125000	9.538245e-001	-1.479544e-001	-1.102636e+000	-1.421571e+000	5.925207e-005	7.711921e-004	-8.457990e-002	7.542031e-002
26265625	9.539560e-001	-1.491693e-001	-1.112832e+000	-1.423571e+000	4.030749e-004	7.555820e-004	-8.407320e-002	7.517356e-002
26406250	9.530395e-001	-1.492170e-001	-1.123886e+000	-1.425890e+000	-2.585524e-004	8.234086e-004	-8.392162e-002	7.551413e-002
26546875	9.530295e-001	-1.500221e-001	-1.133161e+000	-1.428133e+000	1.702324e-004	7.069468e-004	-8.344510e-002	7.618031e-002
26687500	9.520621e-001	-1.514401e-001	-1.145047e+000	-1.428727e+000	2.851893e-004	6.767314e-004	-8.267941e-002	7.653952e-002
26828125	9.525210e-001	-1.521416e-001	-1.155579e+000	-1.431552e+000	-1.471527e-004	8.174903e-004	-8.195182e-002	7.716537e-002
26968750	9.520186e-001	-1.527805e-001	-1.166528e+000	-1.433678e+000	1.583487e-004	8.509306e-004	-8.142235e-002	7.723322e-002
27109375	9.522729e-001	-1.526173e-001	-1.176454e+000	-1.435939e+000	4.799078e-004	1.029193e-003	-8.129181e-002	7.761219e-002
27250000	9.516184e-001	-1.539370e-001	-1.187255e+000	-1.437367e+000	4.049363e-004	6.668828e-004	-8.081201e-002	7.810438e-002
27390625	9.515183e-001	-1.542782e-001	-1.197894e+000	-1.439345e+000	2.402669e-004	6.577315e-004	-8.021114e-002	7.852090e-002
27531250	9.507068e-001	-1.545146e-001	-1.208556e+000	-1.441045e+000	5.947212e-004	5.669873e-004	-8.013969e-002	7.842630e-002
27671875	9.513765e-001	-1.559235e-001	-1.219918e+000	-1.442533e+000	3.426184e-004	9.678488e-004	-7.925519e-002	7.922643e-002
27812500	9.504697e-001	-1.568375e-001	-1.231445e+000	-1.444122e+000	1.222363e-004	1.233620e-003	-7.889955e-002	7.966593e-002
27953125	9.502337e-001	-1.570996e-001	-1.241347e+000	-1.444962e+000	1.677074e-004	8.623587e-004	-7.868302e-002	7.999217e-002
28093750	9.504823e-001	-1.580699e-001	-1.252710e+000	-1.446962e+000	5.991746e-004	9.380152e-004	-7.793281e-002	7.979852e-002
28234375	9.498097e-001	-1.587833e-001	-1.263131e+000	-1.447617e+000	7.513851e-004	7.867407e-004	-7.740669e-002	8.039929e-002
28375000	9.494561e-001	-1.594443e-001	-1.273644e+000	-1.449568e+000	3.969296e-004	6.650342e-004	-7.744157e-002	8.061764e-002
28515625	9.496757e-001	-1.593753e-001	-1.284554e+000	-1.451598e+000	3.073645e-004	9.953704e-004	-7.680093e-002	8.128131e-002
28656250	9.486531e-001	-1.614318e-001	-1.295878e+000	-1.452045e+000	4.750972e-004	6.243406e-004	-7.612679e-002	8.134201e-002
28796875	9.484111e-001	-1.611614e-001	-1.305504e+000	-1.452860e+000	3.557131e-004	9.871421e-004	-7.564209e-002	8.208866e-002
28937500	9.485740e-001	-1.620386e-001	-1.317085e+000	-1.454334e+000	4.546111e-004	9.587637e-004	-7.534516e-002	8.204579e-002
29078125	9.486547e-001	-1.631105e-001	-1.329739e+000	-1.456202e+000	1.713516e-004	1.134529e-003	-7.474719e-002	8.220046e-002
29218750	9.477931e-001	-1.635097e-001	-1.338659e+000	-1.456500e+000	7.614464e-004	1.135263e-003	-7.416222e-002	8.276971e-002
29359375	9.473913e-001	-1.635538e-001	-1.349264e+000	-1.456853e+000	6.786449e-004	8.208315e-004	-7.370722e-002	8.294149e-002
29500000	9.472272e-001	-1.647308e-001	-1.360962e+000	-1.457676e+000	5.615265e-004	4.808067e-004	-7.327750e-002	8.319775e-002
29640625	9.471785e-001	-1.649024e-001	-1.371822e+000	-1.459856e+000	6.840149e-008	1.140675e-003	-7.252112e-002	8.349437e-002
29781250	9.463409e-001	-1.663064e-001	-1.382383e+000	-1.458781e+000	6.579514e-004	1.027019e-003	-7.242645e-002	8.322378e-002
29921875	9.463137e-001	-1.669010e-001	-1.393092e+000	-1.459474e+000	7.463882e-004	5.775428e-004	-7.175588e-002	8.382693e-002
30062500	9.463548e-001	-1.670637e-001	-1.403595e+000	-1.459988e+000	7.210314e-004	5.550088e-004	-7.120733e-002	8.433464e-002
30203125	9.454256e-001	-1.682878e-001	-1.415187e+000	-1.459539e+000	3.427968e-004	6.812674e-004	-7.035166e-002	8.513607e-002
30343750	9.459321e-001	-1.690888e-001	-1.425553e+000	-1.460575e+000	5.774907e-004	6.053509e-004	-7.013044e-002	8.496481e-002
30484375	9.455737e-001	-1.689850e-001	-1.436795e+000	-1.461187e+000	3.168587e-004	7.686462e-004	-6.984546e-002	8.520710e-002
30625000	9.452334e-001	-1.695460e-001	-1.447446e+000	-1.462037e+000	1.772971e-004	7.309686e-004	-6.923364e-002	8.526524e-002
30765625	9.447780e-001	-1.705237e-001	-1.458219e+000	-1.462107e+000	2.419372e-004	7.675335e-004	-6.865130e-002	8.550361e-002
30906250	9.449067e-001	-1.715904e-001	-1.469816e+000	-1.461937e+000	2.428959e-004	1.004884e-003	-6.847514e-002	8.574104e-002
31046875	9.440420e-001	-1.717922e-001	-1.480689e+000	-1.461873e+000	4.512500e-004	9.152905e-004	-6.795633e-002	8.636911e-002
31187500	9.436670e-001	-1.728023e-001	-1.491530e+000	-1.461630e+000	7.019430e-004	9.452594e-004	-6.765047e-002	8.643844e-002
31328125	9.436672e-001	-1.737621e-001	-1.502652e+000	-1.461242e+000	1.044065e-003	9.983861e-004	-6.676151e-002	8.655399e-002
31468750	9.429138e-001	-1.742318e-001	-1.512618e+000	-1.460358e+000	2.162472e-004	6.971339e-004	-6.605415e-002	8.690788e-002
31609375	9.430805e-001	-1.749289e-001	-1.523897e+000	-1.460584e+000	-2.024336e-005	5.788779e-004	-6.579361e-002	8.717966e-002
31750000	9.432406e-001	-1.755576e-001	-1.535526e+000	-1.461124e+000	5.983371e-004	6.547692e-004	-6.534196e-002	8.778359e-002
31890625	9.423432e-001	-1.763474e-001	-1.545809e+000	-1.459565e+000	1.042550e-003	7.098024e-004	-6.479812e-002	8.781444e-002
32031250	9.425240e-001	-1.766053e-001	-1.556842e+000	-1.460383e+000	4.740712e-004	6.581563e-004	-6.393502e-002	8.787040e-002
32171875	9.416501e-001	-1.774347e-001	-1.567764e+000	-1.459025e+000	8.206889e-004	8.919735e-004	-6.403596e-002	8.824743e-002
32312500	9.422008e-001	-1.783151e-001	-1.579308e+000	-1.458992e+000	2.756095e-005	6.584711e-004	-6.325418e-002	8.844986e-002
32453125	9.410747e-001	-1.786293e-001	-1.589539e+000	-1.457946e+000	1.023055e-003	5.597786e-004	-6.241586e-002	8.867550e-002
32593750	9.413288e-001	-1.792157e-001	-1.599864e+000	-1.457307e+000	2.891958e-004	8.055593e-004	-6.195027e-002	8.927272e-002
32734375	9.412905e-001	-1.799814e-001	-1.611920e+000	-1.457093e+000	5.039965e-004	5.394662e-004	-6.188909e-002	8.919213e-002
32875000	9.407422e-001	-1.805990e-001	-1.622602e+000	-1.455499e+000	3.289413e-004	5.754270e-004	-6.131970e-002	8.923669e-002
33015625	9.406358e-001	-1.813275e-001	-1.633723e+000	-1.454733e+000	5.993196e-004	6.472151e-004	-6.068114e-002	8.987776e-002
33156250	9.403650e-001	-1.820416e-001	-1.644655e+000	-1.454025e+000	4.985668e-004	8.411251e-004	-6.041874e-002	9.012336e-002
33296875	9.397555e-001	-1.831209e-001	-1.654715e+000	-1.452127e+000	8.918631e-004	7.389166e-004	-6.027249e-002	9.014832e-002
33437500	9.397202e-001	-1.835083e-001	-1.666636e+000	-1.451845e+000	5.570580e-004	1.244375e-003	-5.951127e-002	9.021126e-002
33578125	9.395214e-001	-1.844993e-001	-1.677217e+000	-1.449499e+000	2.123959e-004	8.068919e-004	-5.872278e-002	9.080110e-002
33718750	9.391741e-001	-1.844371e-001	-1.686620e+000	-1.448865e+000	5.685277e-004	8.794848e-004	-5.820379e-002	9.045944e-002
33859375	9.387537e-001	-1.847974e-001	-1.696840e+000	-1.448270e+000	7.824457e-004	9.322139e-004	-5.773547e-002	9.066862e-002
34000000	9.384609e-001	-1.856974e-001	-1.708719e+000	-1.446943e+000	5.463622e-004	1.227126e-003	-5.728051e-002	9.112427e-002
34140625	9.384022e-001	-1.864259e-001	-1.719836e+000	-1.444557e+000	5.406169e-004	7.485223e-004	-5.704673e-002	9.131306e-002
34281250	9.378602e-001	-1.870726e-001	-1.730378e+000	-1.443841e+000	6.969341e-004	9.798212e-004	-5.613993e-002	9.125733e-002
34421875	9.366418e-001	-1.881542e-001	-1.740311e+000	-1.441184e+000	5.223258e-004	9.555522e-004	-5.594686e-002	9.142252e-002
34562500	9.378042e-001	-1.882019e-001	-1.751242e+000	-1.440335e+000	7.113667e-004	5.737505e-004	-5.499340e-002	9.157810e-002
34703125	9.372693e-001	-1.890656e-001	-1.762405e+000	-1.438596e+000	8.604213e-004	5.612055e-004	-5.463985e-002	9.203337e-002
34843750	9.371658e-001	-1.900387e-001	-1.773563e+000	-1.436850e+000	4.446166e-004	9.192415e-004	-5.369350e-002	9.275599e-002
34984375	9.370627e-001	-1.901168e-001	-1.783753e+000	-1.435152e+000	4.558039e-004	5.225540e-004	-5.352149e-002	9.213365e-002
35125000	9.362051e-001	-1.910316e-001	-1.793060e+000	-1.433119e+000	6.291138e-004	1.139034e-003	-5.310602e-002	9.253198e-002
35265625	9.360535e-001	-1.912942e-001	-1.803925e+000	-1.431372e+000	7.375346e-004	7.008686e-004	-5.280949e-002	9.284229e-002
35406250	9.357474e-001	-1.924892e-001	-1.815811e+000	-1.429117e+000	3.934556e-004	8.649971e-004	-5.238629e-002	9.295902e-002
35546875	9.355570e-001	-1.931965e-001	-1.826325e+000	-1.427397e+000	6.861095e-004	6.011988e-004	-5.177984e-002	9.283445e-002
35687500	9.351471e-001	-1.936956e-001	-1.836502e+000	-1.425072e+000	6.230829e-004	1.473554e-003	-5.132106e-002	9.330349e-002
35828125	9.343963e-001	-1.944448e-001	-1.848109e+000	-1.423004e+000	7.147758e-004	8.839359e-004	-5.130416e-002	9.356938e-002
35968750	9.348903e-001	-1.950763e-001	-1.858656e+000	-1.420549e+000	8.241245e-004	1.106967e-003	-5.029655e-002	9.338568e-002
36109375	9.341740e-001	-1.949933e-001	-1.867469e+000	-1.418601e+000	9.703019e-004	1.117060e-003	-4.975331e-002	9.339807e-002
36250000	9.339576e-001	-1.963556e-001	-1.879235e+000	-1.416583e+000	5.894642e-004	1.283567e-003	-4.904320e-002	9.388281e-002
36390625	9.338033e-001	-1.966666e-001	-1.889213e+000	-1.414544e+000	3.798730e-004	5.720484e-004	-4.840790e-002	9.397629e-002
36531250	9.341789e-001	-1.977782e-001	-1.900290e+000	-1.412406e+000	8.868370e-004	9.713683e-004	-4.862779e-002	9.439656e-002
36671875	9.331005e-001	-1.975206e-001	-1.908959e+000	-1.409606e+000	7.929628e-004	1.183608e-003	-4.781796e-002	9.432515e-002
36812500	9.325283e-001	-1.989442e-001	-1.921059e+000	-1.406328e+000	3.386787e-004	1.048429e-003	-4.765715e-002	9.448317e-002
36953125	9.326954e-001	-1.987972e-001	-1.931729e+000	-1.404423e+000	5.376597e-004	9.888558e-004	-4.689372e-002	9.466771e-002
37093750	9.323314e-001	-1.999745e-001	-1.942643e+000	-1.401101e+000	7.946114e-004	5.836277e-004	-4.600168e-002	9.470872e-002
37234375	9.319054e-001	-2.007003e-001	-1.952316e+000	-1.398781e+000	5.373991e-004	1.069843e-003	-4.577804e-002	9.455644e-002
37375000	9.314764e-001	-2.011239e-001	-1.963898e+000	-1.396715e+000	8.751889e-004	8.272786e-004	-4.544409e-002	9.490470e-002
37515625	9.312100e-001	-2.022795e-001	-1.974819e+000	-1.392035e+000	7.538956e-004	7.748082e-004	-4.467850e-002	9.476231e-002
37656250	9.313877e-001	-2.023759e-001	-1.983764e+000	-1.390594e+000	5.146264e-004	8.298718e-004	-4.400303e-002	9.508837e-002
37796875	9.304262e-001	-2.033549e-001	-1.995134e+000	-1.386749e+000	6.789129e-004	1.142225e-003	-4.369170e-002	9.486700e-002
37937500	9.303652e-001	-2.034742e-001	-2.004694e+000	-1.384749e+000	9.852581e-004	9.478427e-004	-4.292087e-002	9.520884e-002
38078125	9.304765e-001	-2.040357e-001	-2.014895e+000	-1.381185e+000	1.561386e-003	1.110509e-003	-4.257168e-002	9.523121e-002
38218750	9.304237e-001	-2.048279e-001	-2.025875e+000	-1.378487e+000	7.564883e-004	9.922356e-004	-4.204507e-002	9.520072e-002
38359375	9.296254e-001	-2.054128e-001	-2.035778e+000	-1.375163e+000	6.411552e-004	4.006149e-004	-4.195738e-002	9.553766e-002
38500000	9.289333e-001	-2.068810e-001	-2.046427e+000	-1.370779e+000	8.174846e-004	5.649272e-004	-4.134595e-002	9.572502e-002
38640625	9.290951e-001	-2.067071e-001	-2.056340e+000	-1.368677e+000	7.867589e-004	6.571365e-004	-4.035421e-002	9.571039e-002
38781250	9.290347e-001	-2.073844e-001	-2.067261e+000	-1.365106e+000	6.578527e-004	9.055543e-004	-3.984400e-002	9.584872e-002
38921875	9.284326e-001	-2.086138e-001	-2.077884e+000	-1.361509e+000	8.273910e-004	6.581107e-004	-3.962587e-002	9.601108e-002
39062500	9.285728e-001	-2.089515e-001	-2.087993e+000	-1.358158e+000	8.268913e-004	1.047640e-003	-3.930262e-002	9.609789e-002
39203125	9.279886e-001	-2.095475e-001	-2.098513e+000	-1.354630e+000	5.350000e-004	9.148373e-004	-3.906215e-002	9.601042e-002
39343750	9.277023e-001	-2.098358e-001	-2.108662e+000	-1.351052e+000	6.806584e-004	5.565433e-004	-3.834613e-002	9.602836e-002
39484375	9.277597e-001	-2.106940e-001	-2.119796e+000	-1.348442e+000	6.868225e-004	5.918626e-004	-3.822209e-002	9.663981e-002
39625000	9.270268e-001	-2.109975e-001	-2.128127e+000	-1.345111e+000	6.236195e-004	6.781574e-004	-3.729479e-002	9.631150e-002
39765625	9.270654e-001	-2.116253e-001	-2.139780e+000	-1.340451e+000	5.122490e-004	9.406310e-004	-3.697851e-002	9.606217e-002
39906250	9.267136e-001	-2.118517e-001	-2.147717e+000	-1.337563e+000	9.114924e-004	8.469606e-004	-3.645958e-002	9.666180e-002
40046875	9.266592e-001	-2.133955e-001	-2.159343e+000	-1.332356e+000	7.511246e-004	8.536326e-004	-3.576553e-002	9.663983e-002
40187500	9.256424e-001	-2.135737e-001	-2.168780e+000	-1.328881e+000	7.795543e-004	8.489006e-004	-3.535587e-002	9.668673e-002
40328125	9.259451e-001	-2.137033e-001	-2.178436e+000	-1.326517e+000	5.931523e-004	6.769400e-004	-3.475664e-002	9.674493e-002
40468750	9.256277e-001	-2.149613e-001	-2.189466e+000	-1.322998e+000	8.902438e-004	8.036356e-004	-3.467182e-002	9.737244e-002
40609375	9.251214e-001	-2.151943e-001	-2.199601e+000	-1.319196e+000	6.227652e-004	1.094485e-003	-3.356515e-002	9.695332e-002
40750000	9.249975e-001	-2.160939e-001	-2.209225e+000	-1.313983e+000	9.910812e-004	5.877099e-004	-3.317810e-002	9.726441e-002
40890625	9.243581e-001	-2.163906e-001	-2.219270e+000	-1.310090e+000	7.966442e-004	7.524589e-004	-3.238678e-002	9.721242e-002
41031250	9.245840e-001	-2.177694e-001	-2.229421e+000	-1.305139e+000	6.715127e-004	9.468766e-004	-3.242005e-002	9.733458e-002
41171875	9.241004e-001	-2.177162e-001	-2.239664e+000	-1.302326e+000	3.686110e-004	1.224554e-003	-3.170364e-002	9.702364e-002
41312500	9.243236e-001	-2.182758e-001	-2.249651e+000	-1.298529e+000	6.004690e-004	1.081361e-003	-3.134481e-002	9.706994e-002
41453125	9.236527e-001	-2.189714e-001	-2.259974e+000	-1.293352e+000	8.349352e-004	6.113639e-004	-3.058511e-002	9.708103e-002
41593750	9.233200e-001	-2.194847e-001	-2.269509e+000	-1.289347e+000	1.037097e-003	6.662799e-004	-3.062003e-002	9.777155e-002
41734375	9.226966e-001	-2.200690e-001	-2.280080e+000	-1.284793e+000	1.203883e-003	1.169705e-003	-2.978317e-002	9.752570e-002
41875000	9.229539e-001	-2.208060e-001	-2.290783e+000	-1.280839e+000	6.550068e-004	6.110669e-004	-2.931621e-002	9.751199e-002
42015625	9.220972e-001	-2.212088e-001	-2.299110e+000	-1.275807e+000	7.130882e-004	1.149858e-003	-2.843617e-002	9.747567e-002
42156250	9.222756e-001	-2.218569e-001	-2.309539e+000	-1.271921e+000	7.856375e-004	9.227932e-004	-2.822107e-002	9.718423e-002
42296875	9.214873e-001	-2.225529e-001	-2.319132e+000	-1.267624e+000	6.550903e-004	5.297473e-004	-2.767275e-002	9.730040e-002
42437500	9.215951e-001	-2.234376e-001	-2.329514e+000	-1.262069e+000	7.252040e-004	1.216239e-003	-2.746888e-002	9.732778e-002
42578125	9.210423e-001	-2.240786e-001	-2.339353e+000	-1.257315e+000	7.888689e-004	1.083014e-003	-2.705473e-002	9.762255e-002
42718750	9.206741e-001	-2.241545e-001	-2.349369e+000	-1.253071e+000	6.691049e-004	8.307478e-004	-2.638437e-002	9.761708e-002
42859375	9.200634e-001	-2.251326e-001	-2.357998e+000	-1.247978e+000	7.897164e-004	6.354250e-004	-2.637844e-002	9.759582e-002
43000000	9.203313e-001	-2.255624e-001	-2.368898e+000	-1.242487e+000	5.613870e-004	9.019866e-004	-2.506376e-002	9.756362e-002
43140625	9.199793e-001	-2.261788e-001	-2.379197e+000	-1.237826e+000	9.670312e-004	5.114235e-004	-2.523902e-002	9.761977e-002
43281250	9.192567e-001	-2.265597e-001	-2.388016e+000	-1.232956e+000	7.603877e-004	1.152073e-003	-2.443730e-002	9.757751e-002
43421875	9.195567e-001	-2.272277e-001	-2.398042e+000	-1.228415e+000	1.015255e-003	8.422313e-004	-2.387082e-002	9.746350e-002
43562500	9.188716e-001	-2.276542e-001	-2.406808e+000	-1.222572e+000	8.812926e-004	5.176392e-004	-2.320435e-002	9.738287e-002
43703125	9.184996e-001	-2.284107e-001	-2.417039e+000	-1.218224e+000	4.890233e-004	7.735280e-004	-2.329549e-002	9.746433e-002
43843750	9.183903e-001	-2.288163e-001	-2.427310e+000	-1.213191e+000	9.047893e-004	9.535013e-004	-2.253270e-002	9.754099e-002
43984375	9.181816e-001	-2.295025e-001	-2.437314e+000	-1.207722e+000	9.362047e-004	7.143987e-004	-2.186747e-002	9.734229e-002
44125000	9.178725e-001	-2.309279e-001	-2.447630e+000	-1.201767e+000	6.929077e-004	7.152053e-004	-2.182163e-002	9.762364e-002
44265625	9.181331e-001	-2.306512e-001	-2.456154e+000	-1.198106e+000	8.569561e-004	7.470047e-004	-2.172433e-002	9.751809e-002
44406250	9.175114e-001	-2.314921e-001	-2.466507e+000	-1.192186e+000	1.006870e-003	7.282032e-004	-2.066331e-002	9.786535e-002
44546875	9.176246e-001	-2.324363e-001	-2.475248e+000	-1.186537e+000	9.631681e-004	1.009808e-003	-2.028073e-002	9.743719e-002
44687500	9.169867e-001	-2.325816e-001	-2.484299e+000	-1.180740e+000	1.132810e-003	1.357217e-003	-1.943290e-002	9.740377e-002
44828125	9.155718e-001	-2.338073e-001	-2.495088e+000	-1.173599e+000	8.428980e-004	7.180863e-004	-1.942097e-002	9.730305e-002
44968750	9.157509e-001	-2.346864e-001	-2.503747e+000	-1.167963e+000	8.137294e-004	8.253723e-004	-1.848129e-002	9.742455e-002
45109375	9.160033e-001	-2.348859e-001	-2.512746e+000	-1.164005e+000	1.043596e-003	8.918321e-004	-1.816843e-002	9.750147e-002
45250000	9.159087e-001	-2.353520e-001	-2.523167e+000	-1.157938e+000	9.694776e-004	8.685598e-004	-1.755371e-002	9.772063e-002
45390625	9.148680e-001	-2.360460e-001	-2.532009e+000	-1.151320e+000	9.932319e-004	1.082256e-003	-1.744121e-002	9.766802e-002
45531250	9.145087e-001	-2.359231e-001	-2.540243e+000	-1.147058e+000	1.321391e-003	9.151776e-004	-1.677744e-002	9.755589e-002
45671875	9.152673e-001	-2.363266e-001	-2.551375e+000	-1.141281e+000	6.750084e-004	8.464526e-004	-1.605192e-002	9.730725e-002
45812500	9.145344e-001	-2.375158e-001	-2.560062e+000	-1.134836e+000	8.276125e-004	7.522903e-004	-1.573188e-002	9.728364e-002
45953125	9.139586e-001	-2.380805e-001	-2.569068e+000	-1.129090e+000	8.751079e-004	8.619189e-004	-1.529789e-002	9.722244e-002
46093750	9.138886e-001	-2.383520e-001	-2.578120e+000	-1.122981e+000	1.133006e-003	1.024951e-003	-1.513489e-002	9.736256e-002
46234375	9.134984e-001	-2.389771e-001	-2.587440e+000	-1.117093e+000	1.073686e-003	1.165132e-003	-1.456894e-002	9.725807e-002
46375000	9.132530e-001	-2.399848e-001	-2.597798e+000	-1.111273e+000	8.928459e-004	1.097081e-003	-1.403269e-002	9.721034e-002
46515625	9.129579e-001	-2.404278e-001	-2.606042e+000	-1.104745e+000	7.388629e-004	9.050975e-004	-1.366324e-002	9.750127e-002
46656250	9.122542e-001	-2.410102e-001	-2.614890e+000	-1.097927e+000	7.393513e-004	1.000571e-003	-1.324910e-002	9.735772e-002
